;$FILEVERSION=1.1
;$STARTTIME=45864.7955752083
;
;   Start time: 26/07/2025 19:05:37.698.0
;   Generated by PCAN-View v5.2.0.926
;
;   Message Number
;   |         Time Offset (ms)
;   |         |        Type
;   |         |        |        ID (hex)
;   |         |        |        |     Data Length
;   |         |        |        |     |   Data Bytes (hex) ...
;   |         |        |        |     |   |
;---+--   ----+----  --+--  ----+---  +  -+ -- -- -- -- -- -- --
     1)       398.3  Rx         0033  8  90 00 2F 00 01 86 A0 01 
     2)       626.7  Rx         0069  8  16 25 25 23 D7 00 00 AA 
     3)       767.2  Rx         0301  8  07 60 00 22 00 BE 2D DF 
     4)       924.2  Rx         0247  8  40 08 CA 32 2D 2B 29 05 
     5)      1398.8  Rx         0043  8  0B 00 00 00 00 00 00 01 
     6)      1767.1  Rx         0301  8  07 60 00 22 00 BE 2D DF 
     7)      1921.8  Rx         0247  8  40 08 CA 32 2D 2B 29 05 
     8)      2726.9  Rx         0069  8  16 25 25 23 D7 00 00 AA 
     9)      2767.2  Rx         0301  8  07 60 00 23 00 BE 2D DF 
    10)      2922.8  Rx         0247  8  40 08 D0 32 2D 2B 29 05 
    11)      3767.1  Rx         0301  8  07 60 00 22 00 BE 2D DF 
    12)      3920.2  Rx         0247  8  40 08 D0 32 2D 2B 29 05 
    13)      4402.3  Rx         0033  8  90 00 2F 00 01 86 A0 01 
    14)      4767.1  Rx         0301  8  07 60 00 22 00 BE 2D DF 
    15)      4827.1  Rx         0069  8  16 25 25 24 D4 00 00 AA 
    16)      4921.1  Rx         0247  8  40 08 CA 32 2D 2B 29 05 
    17)      5403.3  Rx         0043  8  0B 00 00 00 00 00 00 01 
    18)      5767.0  Rx         0301  8  07 60 00 23 00 BE 2D DF 
    19)      5918.6  Rx         0247  8  40 08 CA 32 2D 2B 29 05 
    20)      6766.9  Rx         0301  8  07 60 00 22 00 BE 2D DF 
    21)      6919.3  Rx         0247  8  40 08 CA 32 2D 2B 29 05 
    22)      6927.0  Rx         0069  8  16 25 25 24 D4 00 00 AA 
    23)      7766.9  Rx         0301  8  07 60 00 23 00 BE 2D DF 
    24)      7916.9  Rx         0247  8  40 08 CA 32 2D 2B 29 05 
    25)      8406.6  Rx         0033  8  90 00 2F 00 01 86 A0 01 
    26)      8766.9  Rx         0301  8  07 60 00 22 00 BE 2D DF 
    27)      8917.8  Rx         0247  8  40 08 CA 32 2D 2B 29 05 
    28)      9027.2  Rx         0069  8  16 25 25 23 D9 00 00 AA 
    29)      9407.9  Rx         0043  8  0B 00 00 00 00 00 00 01 
    30)      9767.1  Rx         0301  8  07 60 00 22 00 BE 2D DF 
    31)      9915.4  Rx         0247  8  40 08 CA 32 2D 2B 29 05 
    32)     10767.1  Rx         0301  8  07 60 00 22 00 BE 2D DF 
    33)     10916.2  Rx         0247  8  40 08 CA 32 2D 2B 29 05 
    34)     11127.4  Rx         0069  8  16 25 25 24 D5 00 00 AA 
    35)     11767.0  Rx         0301  8  07 60 00 22 00 BE 2D DF 
    36)     11913.8  Rx         0247  8  40 08 CA 32 2D 2B 29 05 
    37)     12405.8  Rx         0069  8  16 25 25 24 D5 00 00 AA 
    38)     12411.6  Rx         0033  8  90 00 2F 00 01 86 A0 01 
    39)     12767.0  Rx         0301  8  07 60 00 22 00 BE 2D DF 
    40)     12914.6  Rx         0247  8  40 08 CA 32 2D 2B 29 05 
    41)     13412.8  Rx         0043  8  0C 00 00 00 00 00 00 01 
    42)     13767.1  Rx         0301  8  07 60 00 23 00 BE 2D DF 
    43)     13912.3  Rx         0247  8  40 08 CA 32 2D 2B 29 05 
    44)     14405.9  Rx         0069  8  16 25 25 24 D5 00 00 AA 
    45)     14767.1  Rx         0301  8  07 60 00 22 00 BE 2D DF 
    46)     14911.5  Rx         0247  8  40 08 CA 32 2D 2B 29 05 
    47)     15767.0  Rx         0301  8  07 60 00 21 00 BE 2D DF 
    48)     15912.4  Rx         0247  8  40 08 D0 32 2D 2B 29 05 
    49)     16405.7  Rx         0069  8  16 24 25 23 D6 00 00 AA 
    50)     16416.0  Rx         0033  8  90 00 2E 00 01 86 A0 01 
    51)     16766.8  Rx         0301  8  07 60 00 21 00 BE 2D DE 
    52)     16909.6  Rx         0247  8  40 08 D0 32 2D 2B 29 05 
    53)     17416.8  Rx         0043  8  0B 00 00 00 00 00 00 01 
    54)     17766.2  Rx         0301  8  07 60 00 22 00 BE 2D DD 
    55)     17909.8  Rx         0247  8  40 08 CA 32 2D 2B 29 05 
    56)     18404.9  Rx         0069  8  16 24 25 23 D6 00 00 AA 
    57)     18766.1  Rx         0301  8  07 60 00 22 00 BE 2D DD 
    58)     18907.2  Rx         0247  8  40 08 CA 32 2D 2B 29 05 
    59)     19766.0  Rx         0301  8  07 60 00 23 00 BE 2D DD 
    60)     19908.1  Rx         0247  8  40 08 CA 32 2D 2B 29 05 
    61)     20405.0  Rx         0069  8  16 24 25 23 D6 00 00 AA 
    62)     20419.9  Rx         0033  8  90 00 2E 00 01 86 A0 01 
    63)     20766.2  Rx         0301  8  07 60 00 22 00 BE 2D DE 
    64)     20905.7  Rx         0247  8  40 08 CA 32 2D 2B 29 05 
    65)     21420.3  Rx         0043  8  0C 00 00 00 00 00 00 01 
    66)     21765.8  Rx         0301  8  07 60 00 22 00 BE 2D DD 
    67)     21906.2  Rx         0247  8  40 08 CA 32 2D 2B 29 05 
    68)     22404.8  Rx         0069  8  16 25 25 24 D9 00 00 AA 
    69)     22765.9  Rx         0301  8  07 60 00 22 00 BE 2D DD 
    70)     22904.0  Rx         0247  8  40 08 CA 32 2D 2B 29 05 
    71)     23765.8  Rx         0301  8  07 60 00 22 00 BE 2D DD 
    72)     23905.1  Rx         0247  8  40 08 D0 32 2D 2B 29 05 
    73)     24405.0  Rx         0069  8  16 25 25 23 DC 00 00 AA 
    74)     24422.3  Rx         0033  8  90 00 2F 00 01 86 A0 01 
    75)     24766.0  Rx         0301  8  07 60 00 22 00 BE 2D DD 
    76)     24902.6  Rx         0247  8  40 08 D0 32 2D 2B 29 05 
    77)     25422.9  Rx         0043  8  0B 00 00 00 00 00 00 01 
    78)     25766.1  Rx         0301  8  07 60 00 22 00 BE 2D DD 
    79)     25903.4  Rx         0247  8  40 08 CA 32 2D 2B 29 05 
    80)     26405.2  Rx         0069  8  16 25 25 23 DC 00 00 AA 
    81)     26766.1  Rx         0301  8  07 60 00 22 00 BE 2D DD 
    82)     26901.1  Rx         0247  8  40 08 CA 32 2D 2B 29 05 
    83)     27766.0  Rx         0301  8  07 60 00 22 00 BE 2D DD 
    84)     27902.2  Rx         0247  8  40 08 D0 32 2D 2B 29 05 
    85)     28405.3  Rx         0069  8  16 25 25 23 DC 00 00 AA 
    86)     28426.9  Rx         0033  8  90 00 2F 00 01 86 A0 01 
    87)     28766.2  Rx         0301  8  07 60 00 22 00 BE 2D DD 
    88)     28899.6  Rx         0247  8  40 08 D0 32 2D 2B 29 05 
    89)     29428.3  Rx         0043  8  0B 00 00 00 00 00 00 01 
    90)     29766.3  Rx         0301  8  07 60 00 22 00 BE 2D DD 
    91)     29900.5  Rx         0247  8  40 08 CA 32 2D 2B 29 05 
    92)     30405.4  Rx         0069  8  16 25 25 23 DC 00 00 AA 
    93)     30766.4  Rx         0301  8  07 60 00 22 00 BE 2D DD 
    94)     30874.0  Rx         0247  8  40 08 CA 32 2D 2B 29 05 
    95)     31766.4  Rx         0301  8  07 60 00 22 00 BE 2D DD 
    96)     31899.1  Rx         0247  8  40 08 CA 32 2D 2B 29 05 
    97)     32405.7  Rx         0069  8  16 25 25 23 D7 00 00 AA 
    98)     32432.6  Rx         0033  8  90 00 2F 00 01 86 A0 01 
    99)     32766.7  Rx         0301  8  07 60 00 22 00 BE 2D DD 
   100)     32896.7  Rx         0247  8  40 08 CA 32 2D 2B 29 05 
   101)     33434.1  Rx         0043  8  0B 00 00 00 00 00 00 01 
   102)     33766.8  Rx         0301  8  07 60 00 21 00 BE 2D DD 
   103)     33897.7  Rx         0247  8  40 08 CA 32 2D 2B 29 05 
   104)     34405.9  Rx         0069  8  16 25 25 23 D6 00 00 AA 
   105)     34766.8  Rx         0301  8  07 60 00 21 00 BE 2D DD 
   106)     34895.4  Rx         0247  8  40 08 CA 32 2D 2B 29 05 
   107)     35766.7  Rx         0301  8  07 60 00 22 00 BE 2D DD 
   108)     35896.5  Rx         0247  8  40 08 D0 32 2D 2B 29 05 
   109)     36406.0  Rx         0069  8  16 25 25 23 D6 00 00 AA 
   110)     36438.4  Rx         0033  8  90 00 2F 00 01 86 A0 01 
   111)     36766.8  Rx         0301  8  07 60 00 22 00 BE 2D DD 
   112)     36893.8  Rx         0247  8  40 08 D0 32 2D 2B 29 05 
   113)     37439.8  Rx         0043  8  0B 00 00 00 00 00 00 01 
   114)     37766.8  Rx         0301  8  07 60 00 22 00 BE 2D DD 
   115)     37894.9  Rx         0247  8  40 08 D0 32 2D 2B 29 05 
   116)     38429.2  Rx         0069  8  16 25 25 24 D6 00 00 AA 
   117)     38766.9  Rx         0301  8  07 60 00 22 00 BE 2D DC 
   118)     38892.2  Rx         0247  8  40 08 D0 32 2D 2B 29 05 
   119)     39766.8  Rx         0301  8  07 60 00 22 00 BE 2D DC 
   120)     39893.1  Rx         0247  8  40 08 CA 32 2D 2B 29 05 
   121)     40443.5  Rx         0033  8  90 00 2E 00 01 86 A0 01 
   122)     40529.3  Rx         0069  8  16 25 25 24 DB 00 00 AA 
   123)     40766.9  Rx         0301  8  07 60 00 22 00 BE 2D DC 
   124)     40890.7  Rx         0247  8  40 08 CA 32 2D 2B 29 05 
   125)     41444.7  Rx         0043  8  0B 00 00 00 00 00 00 01 
   126)     41766.9  Rx         0301  8  07 60 00 22 00 BE 2D DC 
   127)     41891.5  Rx         0247  8  40 08 CA 32 2D 2B 29 05 
   128)     42629.7  Rx         0069  8  16 25 25 23 D9 00 00 AA 
   129)     42766.9  Rx         0301  8  07 60 00 22 00 BE 2D DC 
   130)     42889.0  Rx         0247  8  40 08 CA 32 2D 2B 29 05 
   131)     43766.9  Rx         0301  8  07 60 00 21 00 BE 2D DC 
   132)     43890.1  Rx         0247  8  40 08 D0 32 2D 2B 29 05 
   133)     44448.1  Rx         0033  8  90 00 2F 00 01 86 A0 01 
   134)     44729.7  Rx         0069  8  16 25 25 23 D3 00 00 AA 
   135)     44767.0  Rx         0301  8  07 60 00 22 00 BE 2D DC 
   136)     44887.5  Rx         0247  8  40 08 D0 32 2D 2B 29 05 
   137)     45449.5  Rx         0043  8  0B 00 00 00 00 00 00 01 
   138)     45767.1  Rx         0301  8  07 60 00 22 00 BE 2D DC 
   139)     45888.4  Rx         0247  8  40 08 CA 32 2D 2B 29 05 
   140)     46767.0  Rx         0301  8  07 60 00 22 00 BE 2D DC 
   141)     46829.9  Rx         0069  8  16 25 25 23 D7 00 00 AA 
   142)     46885.9  Rx         0247  8  40 08 CA 32 2D 2B 29 05 
   143)     47766.8  Rx         0301  8  07 60 00 22 00 BE 2D DC 
   144)     47886.7  Rx         0247  8  40 08 CA 32 2D 2B 29 05 
   145)     48453.0  Rx         0033  8  90 00 2F 00 01 86 A0 01 
   146)     48766.8  Rx         0301  8  07 60 00 22 00 BE 2D DC 
   147)     48884.3  Rx         0247  8  40 08 CA 32 2D 2B 29 05 
   148)     48929.9  Rx         0069  8  16 25 25 23 D7 00 00 AA 
   149)     49454.3  Rx         0043  8  0B 00 00 00 00 00 00 01 
   150)     49766.9  Rx         0301  8  07 60 00 22 00 BE 2D DC 
   151)     49885.0  Rx         0247  8  40 08 CA 32 2D 2B 29 05 
   152)     50766.6  Rx         0301  8  07 60 00 22 00 BE 2D DC 
   153)     50882.5  Rx         0247  8  40 08 CA 32 2D 2B 29 05 
   154)     51029.9  Rx         0069  8  16 25 25 23 D7 00 00 AA 
   155)     51766.6  Rx         0301  8  07 60 00 22 00 BE 2D DC 
   156)     51883.4  Rx         0247  8  40 08 CA 32 2D 2B 29 05 
   157)     52458.4  Rx         0033  8  90 00 2F 00 01 86 A0 01 
   158)     52766.6  Rx         0301  8  07 60 00 23 00 BE 2D DC 
   159)     52881.1  Rx         0247  8  40 08 CA 32 2D 2B 29 05 
   160)     53130.4  Rx         0069  8  16 25 25 23 D8 00 00 AA 
   161)     53459.7  Rx         0043  8  0B 00 00 00 00 00 00 01 
   162)     53766.6  Rx         0301  8  07 60 00 23 00 BE 2D DC 
   163)     53881.8  Rx         0247  8  40 08 CA 32 2D 2B 29 05 
   164)     54406.2  Rx         0069  8  16 25 25 23 D8 00 00 AA 
   165)     54766.7  Rx         0301  8  07 60 00 23 00 BE 2D DC 
   166)     54879.4  Rx         0247  8  40 08 CA 32 2D 2B 29 05 
   167)     55766.4  Rx         0301  8  07 60 00 22 00 BE 2D DC 
   168)     55879.9  Rx         0247  8  40 08 CA 32 2D 2B 29 05 
   169)     56406.0  Rx         0069  8  16 25 25 24 D7 00 00 AA 
   170)     56463.3  Rx         0033  8  90 00 2F 00 01 86 A0 01 
   171)     56766.6  Rx         0301  8  07 60 00 22 00 BE 2D DC 
   172)     56877.7  Rx         0247  8  40 08 CA 32 2D 2B 29 05 
   173)     57464.8  Rx         0043  8  0B 00 00 00 00 00 00 01 
   174)     57766.6  Rx         0301  8  07 60 00 22 00 BE 2D DC 
   175)     57878.5  Rx         0247  8  40 08 CA 32 2D 2B 29 05 
   176)     58406.2  Rx         0069  8  16 25 25 24 D7 00 00 AA 
   177)     58766.5  Rx         0301  8  07 60 00 23 00 BE 2D DC 
   178)     58876.0  Rx         0247  8  40 08 CA 32 2D 2B 29 05 
   179)     59765.9  Rx         0301  8  07 60 00 22 00 BE 2D DC 
   180)     59874.7  Rx         0247  8  40 08 CA 32 2D 2B 29 05 
   181)     60405.6  Rx         0069  8  16 25 25 24 D7 00 00 AA 
   182)     60468.1  Rx         0033  8  90 00 2F 00 01 86 A0 01 
   183)     60765.9  Rx         0301  8  07 60 00 22 00 BE 2D DC 
   184)     60875.5  Rx         0247  8  40 08 CA 32 2D 2B 29 05 
   185)     61469.4  Rx         0043  8  0B 00 00 00 00 00 00 01 
   186)     61765.9  Rx         0301  8  07 60 00 22 00 BE 2D DC 
   187)     61873.2  Rx         0247  8  40 08 CA 32 2D 2B 29 05 
   188)     62405.8  Rx         0069  8  16 25 25 23 D9 00 00 AA 
   189)     62765.9  Rx         0301  8  07 60 00 25 00 BE 2D DC 
   190)     62874.0  Rx         0247  8  40 08 CA 32 2D 2B 29 05 
   191)     63765.9  Rx         0301  8  07 60 00 7B 00 BE 2D DC 
   192)     63871.7  Rx         0247  8  40 08 CA 32 2D 2B 29 05 
   193)     64405.9  Rx         0069  8  16 25 25 23 D9 00 00 AA 
   194)     64473.5  Rx         0033  8  90 00 2F 00 01 86 A0 01 
   195)     64766.1  Rx         0301  8  07 60 00 C7 00 BE 2D E4 
   196)     64872.6  Rx         0247  8  40 08 CA 32 2D 2B 29 05 
   197)     65474.8  Rx         0043  8  0B 00 00 00 00 00 00 01 
   198)     65766.3  Rx         0301  8  07 00 00 FC 00 BE 2D E3 
   199)     65870.3  Rx         0247  8  40 08 CA 32 2D 2B 29 05 
   200)     66406.1  Rx         0069  8  16 25 25 24 D6 00 00 AA 
   201)     66766.4  Rx         0301  8  07 00 01 0F 00 BE 2D E2 
   202)     66871.4  Rx         0247  8  40 08 D0 32 2D 2B 29 05 
   203)     67766.5  Rx         0301  8  07 00 01 22 00 BE 2D E1 
   204)     67868.9  Rx         0247  8  40 08 D0 32 2D 2B 29 05 
   205)     68406.3  Rx         0069  8  16 25 25 24 D9 00 00 AA 
   206)     68478.7  Rx         0033  8  90 00 2F 00 01 86 A0 01 
   207)     68766.7  Rx         0301  8  07 00 01 27 00 BE 2D E3 
   208)     68869.7  Rx         0247  8  40 08 CA 32 2D 2B 29 05 
   209)     69479.8  Rx         0043  8  0B 00 00 00 00 00 00 01 
   210)     69766.8  Rx         0301  8  07 00 01 2A 00 BE 2D E2 
   211)     69867.4  Rx         0247  8  40 08 CA 32 2D 2B 29 05 
   212)     70406.5  Rx         0069  8  16 25 25 23 DA 00 00 AA 
   213)     70767.0  Rx         0301  8  07 00 01 2A 00 BE 2D DC 
   214)     70868.3  Rx         0247  8  40 08 CA 32 2D 2B 29 05 
   215)     71766.0  Rx         0301  8  07 00 01 28 00 BE 2D E1 
   216)     71865.8  Rx         0247  8  40 08 CA 32 2D 2B 29 05 
   217)     72406.6  Rx         0069  8  16 25 25 24 D8 00 00 AA 
   218)     72483.5  Rx         0033  8  90 00 2F 00 01 86 A0 01 
   219)     72766.1  Rx         0301  8  07 00 01 2A 00 BE 2D E1 
   220)     72866.7  Rx         0247  8  40 08 CA 32 2D 2B 29 05 
   221)     73484.8  Rx         0043  8  0B 00 00 00 00 00 00 01 
   222)     73766.2  Rx         0301  8  07 00 01 2A 00 BE 2D E3 
   223)     73864.3  Rx         0247  8  40 08 CA 32 2D 2B 29 05 
   224)     74406.7  Rx         0069  8  16 25 25 24 D8 00 00 AA 
   225)     74766.3  Rx         0301  8  07 00 01 29 00 BE 2D E3 
   226)     74865.1  Rx         0247  8  40 08 CA 32 2D 2B 29 05 
   227)     75766.3  Rx         0301  8  07 00 01 27 00 BE 2D E2 
   228)     75862.7  Rx         0247  8  40 08 CA 32 2D 2B 29 05 
   229)     76406.7  Rx         0069  8  16 25 25 24 D8 00 00 AA 
   230)     76488.8  Rx         0033  8  90 00 2F 00 01 86 A0 01 
   231)     76766.5  Rx         0301  8  07 00 01 26 00 BE 2D DC 
   232)     76863.6  Rx         0247  8  40 08 CA 32 2D 2B 29 05 
   233)     77490.2  Rx         0043  8  0B 00 00 00 00 00 00 01 
   234)     77766.5  Rx         0301  8  07 00 01 27 00 BE 2D E4 
   235)     77861.1  Rx         0247  8  40 08 CA 32 2D 2B 29 05 
   236)     78406.6  Rx         0069  8  16 25 25 23 D8 00 00 AA 
   237)     78766.6  Rx         0301  8  07 00 01 27 00 BE 2D E3 
   238)     78861.8  Rx         0247  8  40 08 CA 32 2D 2B 29 05 
   239)     79766.5  Rx         0301  8  07 00 01 28 00 BE 2D E3 
   240)     79859.5  Rx         0247  8  40 08 CA 32 2D 2B 29 05 
   241)     80432.5  Rx         0069  8  16 25 25 24 DA 00 00 AA 
   242)     80494.5  Rx         0033  8  90 00 2F 00 01 86 A0 01 
   243)     80766.7  Rx         0301  8  07 00 01 28 00 BE 2D E3 
   244)     80860.3  Rx         0247  8  40 08 CA 32 2D 2B 29 05 
   245)     81495.9  Rx         0043  8  0B 00 00 00 00 00 00 01 
   246)     81766.8  Rx         0301  8  07 00 01 28 00 BE 2D E3 
   247)     81857.9  Rx         0247  8  40 08 CA 32 2D 2B 29 05 
   248)     82532.9  Rx         0069  8  16 24 25 23 D8 00 00 AA 
   249)     82766.9  Rx         0301  8  07 00 01 29 00 BE 2D E3 
   250)     82858.7  Rx         0247  8  40 08 CA 32 2D 2B 29 05 
   251)     83766.7  Rx         0301  8  07 00 01 2A 00 BE 2D E3 
   252)     83856.3  Rx         0247  8  40 08 CA 32 2D 2B 29 05 
   253)     84499.8  Rx         0033  8  90 00 2F 00 01 86 A0 01 
   254)     84632.9  Rx         0069  8  16 25 25 24 D6 00 00 AA 
   255)     84766.9  Rx         0301  8  07 00 01 2A 00 BE 2D E1 
   256)     84857.1  Rx         0247  8  40 08 CA 32 2D 2B 29 05 
   257)     85501.1  Rx         0043  8  0C 00 00 00 00 00 00 01 
   258)     85765.9  Rx         0301  8  07 00 01 2B 00 BE 2D E2 
   259)     85854.7  Rx         0247  8  40 08 CA 32 2D 2B 29 05 
   260)     86732.9  Rx         0069  8  16 25 25 23 D7 00 00 AA 
   261)     86766.0  Rx         0301  8  07 00 01 2C 00 BE 2D E3 
   262)     86855.4  Rx         0247  8  40 08 CA 32 2D 2B 29 05 
   263)     87766.0  Rx         0301  8  07 00 01 2B 00 BE 2D E3 
   264)     87853.1  Rx         0247  8  40 08 CA 32 2D 2B 29 05 
   265)     88505.4  Rx         0033  8  90 00 2F 00 01 86 A0 01 
   266)     88766.1  Rx         0301  8  07 00 01 2A 00 BE 2D E3 
   267)     88833.2  Rx         0069  8  16 25 25 23 D9 00 00 AA 
   268)     88853.8  Rx         0247  8  40 08 CA 32 2D 2B 29 05 
   269)     89506.7  Rx         0043  8  0B 00 00 00 00 00 00 01 
   270)     89766.3  Rx         0301  8  07 00 01 2B 00 BE 2D E3 
   271)     89851.5  Rx         0247  8  40 08 CA 32 2D 2B 29 05 
   272)     90766.2  Rx         0301  8  07 00 01 2C 00 BE 2D E4 
   273)     90852.2  Rx         0247  8  40 08 CA 32 2D 2B 29 05 
   274)     90933.3  Rx         0069  8  16 25 25 24 D5 00 00 AA 
   275)     91766.3  Rx         0301  8  07 00 01 2C 00 BE 2D E4 
   276)     91850.0  Rx         0247  8  40 08 CA 32 2D 2B 29 05 
   277)     92510.5  Rx         0033  8  90 00 2F 00 01 86 A0 01 
   278)     92766.3  Rx         0301  8  07 00 01 2C 00 BE 2D E3 
   279)     92850.6  Rx         0247  8  40 08 CA 32 2D 2B 29 05 
   280)     93033.6  Rx         0069  8  16 25 25 23 D8 00 00 AA 
   281)     93511.8  Rx         0043  8  0B 00 00 00 00 00 00 01 
   282)     93766.5  Rx         0301  8  07 00 01 2B 00 BE 2D E1 
   283)     93848.3  Rx         0247  8  40 08 CA 32 2D 2B 29 05 
   284)     94766.5  Rx         0301  8  07 00 01 2B 00 BE 2D DF 
   285)     94849.1  Rx         0247  8  40 08 CA 32 2D 2B 29 05 
   286)     95133.7  Rx         0069  8  16 25 25 23 D8 00 00 AA 
   287)     95766.5  Rx         0301  8  07 00 01 2C 00 BE 2D E3 
   288)     95846.7  Rx         0247  8  40 08 CA 32 2D 2B 29 05 
   289)     96407.0  Rx         0069  8  16 25 25 23 D8 00 00 AA 
   290)     96516.0  Rx         0033  8  90 00 2F 00 01 86 A0 01 
   291)     96766.7  Rx         0301  8  07 00 01 2D 00 BE 2D E3 
   292)     96847.5  Rx         0247  8  40 08 CA 32 2D 2B 29 05 
   293)     97517.4  Rx         0043  8  0B 00 00 00 00 00 00 01 
   294)     97766.7  Rx         0301  8  07 00 01 2D 00 BE 2D E3 
   295)     97845.1  Rx         0247  8  40 08 CA 32 2D 2B 29 05 
   296)     98406.8  Rx         0069  8  16 25 25 23 D6 00 00 AA 
   297)     98766.8  Rx         0301  8  07 00 01 2E 00 BE 2D E1 
   298)     98845.8  Rx         0247  8  40 08 CA 32 2D 2B 29 05 
   299)     99766.7  Rx         0301  8  07 00 01 2D 00 BE 2D E3 
   300)     99843.4  Rx         0247  8  40 08 CA 32 2D 2B 29 05 
   301)    100406.8  Rx         0069  8  16 25 25 23 D6 00 00 AA 
   302)    100521.3  Rx         0033  8  90 00 2F 00 01 86 A0 01 
   303)    100765.8  Rx         0301  8  07 00 01 2E 00 BE 2D E3 
   304)    100844.1  Rx         0247  8  40 08 CA 32 2D 2B 29 05 
   305)    101522.8  Rx         0043  8  0C 00 00 00 00 00 00 01 
   306)    101765.9  Rx         0301  8  07 00 01 2D 00 BE 2D E1 
   307)    101841.7  Rx         0247  8  40 08 CA 32 2D 2B 29 05 
   308)    102406.7  Rx         0069  8  16 25 25 23 D7 00 00 AA 
   309)    102765.9  Rx         0301  8  07 00 01 2D 00 BE 2D E0 
   310)    102842.5  Rx         0247  8  40 08 CA 32 2D 2B 29 05 
   311)    103765.9  Rx         0301  8  07 00 01 2D 00 BE 2D E2 
   312)    103840.1  Rx         0247  8  40 08 CA 32 2D 2B 29 05 
   313)    104406.7  Rx         0069  8  16 25 25 23 D3 00 00 AA 
   314)    104526.9  Rx         0033  8  90 00 2E 00 01 86 A0 01 
   315)    104766.1  Rx         0301  8  07 00 01 2D 00 BE 2D E0 
   316)    104841.1  Rx         0247  8  40 08 D0 32 2D 2B 29 05 
   317)    105528.4  Rx         0043  8  0B 00 00 00 00 00 00 01 
   318)    105766.2  Rx         0301  8  07 00 01 2C 00 BE 2D E2 
   319)    105838.5  Rx         0247  8  40 08 D0 32 2D 2B 29 05 
   320)    106406.9  Rx         0069  8  16 25 25 23 D3 00 00 AA 
   321)    106766.3  Rx         0301  8  07 00 01 2D 00 BE 2D E4 
   322)    106839.3  Rx         0247  8  40 08 CA 32 2D 2B 29 05 
   323)    107766.3  Rx         0301  8  07 00 01 2D 00 BE 2D E1 
   324)    107837.0  Rx         0247  8  40 08 CA 32 2D 2B 29 05 
   325)    108406.9  Rx         0069  8  16 25 25 23 D9 00 00 AA 
   326)    108532.7  Rx         0033  8  90 00 2F 00 01 86 A0 01 
   327)    108766.5  Rx         0301  8  07 00 01 2F 00 BE 2D E1 
   328)    108837.7  Rx         0247  8  40 08 CA 32 2D 2B 29 05 
   329)    109534.0  Rx         0043  8  0C 00 00 00 00 00 00 01 
   330)    109766.5  Rx         0301  8  07 00 01 32 00 BE 2D DF 
   331)    109835.3  Rx         0247  8  40 08 CA 32 2D 2B 29 05 
   332)    110406.7  Rx         0069  8  16 25 25 23 D9 00 00 AA 
   333)    110766.5  Rx         0301  8  07 00 01 38 00 BE 2D E3 
   334)    110836.0  Rx         0247  8  40 08 CA 32 2D 2B 29 05 
   335)    111766.4  Rx         0301  8  07 00 01 3D 00 BE 2D E3 
   336)    111833.5  Rx         0247  8  40 08 CA 32 2D 2B 29 05 
   337)    112406.8  Rx         0069  8  16 25 25 23 D9 00 00 AA 
   338)    112536.7  Rx         0033  8  90 00 2F 00 01 86 A0 01 
   339)    112765.6  Rx         0301  8  07 00 01 3D 00 BE 2D E3 
   340)    112834.4  Rx         0247  8  40 08 CA 32 2D 2B 29 05 
   341)    113537.7  Rx         0043  8  0C 00 00 00 00 00 00 01 
   342)    113765.7  Rx         0301  8  07 00 01 3D 00 BE 2D E2 
   343)    113832.0  Rx         0247  8  40 08 CA 32 2D 2B 29 05 
   344)    114406.8  Rx         0069  8  16 25 25 23 D9 00 00 AA 
   345)    114765.8  Rx         0301  8  07 00 01 3C 00 BE 2D E3 
   346)    114832.8  Rx         0247  8  40 08 CA 32 2D 2B 29 05 
   347)    115765.7  Rx         0301  8  07 00 01 3D 00 BE 2D E3 
   348)    115830.4  Rx         0247  8  40 08 CA 32 2D 2B 29 05 
   349)    116406.7  Rx         0069  8  16 25 25 23 D6 00 00 AA 
   350)    116539.9  Rx         0033  8  90 00 2F 00 01 86 A0 01 
   351)    116765.8  Rx         0301  8  07 00 01 3E 00 BE 2D E3 
   352)    116831.1  Rx         0247  8  40 08 CA 32 2D 2B 29 05 
   353)    117540.7  Rx         0043  8  0B 00 00 00 00 00 00 01 
   354)    117765.8  Rx         0301  8  07 00 01 3F 00 BE 2D E3 
   355)    117828.7  Rx         0247  8  40 08 CA 32 2D 2B 29 05 
   356)    118406.8  Rx         0069  8  16 25 25 23 D8 00 00 AA 
   357)    118765.9  Rx         0301  8  07 00 01 3E 00 BE 2D E3 
   358)    118829.5  Rx         0247  8  40 08 CA 32 2D 2B 29 05 
   359)    119765.7  Rx         0301  8  07 00 01 3F 00 BE 2D E3 
   360)    119827.1  Rx         0247  8  40 08 CA 32 2D 2B 29 05 
   361)    120406.7  Rx         0069  8  16 25 25 23 D8 00 00 AA 
   362)    120543.8  Rx         0033  8  90 00 2F 00 01 86 A0 01 
   363)    120765.9  Rx         0301  8  07 00 01 3F 00 BE 2D E1 
   364)    120827.8  Rx         0247  8  40 08 CA 32 2D 2B 29 05 
   365)    121545.3  Rx         0043  8  0B 00 00 00 00 00 00 01 
   366)    121765.9  Rx         0301  8  07 00 01 3E 00 BE 2D E3 
   367)    121825.4  Rx         0247  8  40 08 CA 32 2D 2B 29 05 
   368)    122434.8  Rx         0069  8  16 25 25 24 D7 00 00 AA 
   369)    122765.9  Rx         0301  8  07 00 01 40 00 BE 2D E2 
   370)    122826.3  Rx         0247  8  40 08 D0 32 2D 2B 29 05 
   371)    123765.7  Rx         0301  8  07 00 01 43 00 BE 2D E3 
   372)    123823.6  Rx         0247  8  40 08 D0 32 2D 2B 29 05 
   373)    124534.6  Rx         0069  8  16 25 25 24 D7 00 00 AA 
   374)    124549.5  Rx         0033  8  90 00 2F 00 01 86 A0 01 
   375)    124765.9  Rx         0301  8  07 00 01 44 00 BE 2D E3 
   376)    124824.3  Rx         0247  8  40 08 CA 32 2D 2B 29 05 
   377)    125550.8  Rx         0043  8  0B 00 00 00 00 00 00 01 
   378)    125765.9  Rx         0301  8  07 00 01 44 00 BE 2D E3 
   379)    125821.8  Rx         0247  8  40 08 CA 32 2D 2B 29 05 
   380)    126634.7  Rx         0069  8  16 25 25 24 D7 00 00 AA 
   381)    126764.9  Rx         0301  8  07 00 01 43 00 BE 2D E4 
   382)    126822.5  Rx         0247  8  40 08 CA 32 2D 2B 29 05 
   383)    127764.8  Rx         0301  8  07 00 01 43 00 BE 2D E1 
   384)    127820.2  Rx         0247  8  40 08 CA 32 2D 2B 29 05 
   385)    128554.7  Rx         0033  8  90 00 2F 00 01 86 A0 01 
   386)    128734.8  Rx         0069  8  16 25 25 24 D7 00 00 AA 
   387)    128765.0  Rx         0301  8  07 00 01 43 00 BE 2D E4 
   388)    128821.0  Rx         0247  8  40 08 CA 32 2D 2B 29 05 
   389)    129555.9  Rx         0043  8  0B 00 00 00 00 00 00 01 
   390)    129764.9  Rx         0301  8  07 00 01 42 00 BE 2D E3 
   391)    129818.5  Rx         0247  8  40 08 CA 32 2D 2B 29 05 
   392)    130765.0  Rx         0301  8  07 00 01 42 00 BE 2D E3 
   393)    130819.3  Rx         0247  8  40 08 CA 32 2D 2B 29 05 
   394)    130835.2  Rx         0069  8  16 25 25 24 D7 00 00 AA 
   395)    131765.1  Rx         0301  8  07 00 01 43 00 BE 2D E2 
   396)    131817.0  Rx         0247  8  40 08 CA 32 2D 2B 29 05 
   397)    132559.7  Rx         0033  8  90 00 2F 00 01 86 A0 01 
   398)    132765.2  Rx         0301  8  07 00 01 42 00 BE 2D E3 
   399)    132817.8  Rx         0247  8  40 08 CA 32 2D 2B 29 05 
   400)    132935.5  Rx         0069  8  16 24 25 24 D8 00 00 AA 
   401)    133560.9  Rx         0043  8  0C 00 00 00 00 00 00 01 
   402)    133765.4  Rx         0301  8  07 00 01 42 00 BE 2D E3 
   403)    133815.5  Rx         0247  8  40 08 CA 32 2D 2B 29 05 
   404)    134765.4  Rx         0301  8  07 00 01 42 00 BE 2D E2 
   405)    134816.2  Rx         0247  8  40 08 CA 32 2D 2B 29 05 
   406)    135035.7  Rx         0069  8  16 25 25 24 D8 00 00 AA 
   407)    135765.5  Rx         0301  8  07 00 01 44 00 BE 2D E3 
   408)    135813.9  Rx         0247  8  40 08 CA 32 2D 2B 29 05 
   409)    136564.7  Rx         0033  8  90 00 2F 00 01 86 A0 01 
   410)    136765.7  Rx         0301  8  07 00 01 44 00 BE 2D E3 
   411)    136814.8  Rx         0247  8  40 08 CA 32 2D 2B 29 05 
   412)    137136.1  Rx         0069  8  16 25 25 23 D2 00 00 AA 
   413)    137566.0  Rx         0043  8  0C 00 00 00 00 00 00 01 
   414)    137765.9  Rx         0301  8  07 00 01 45 00 BE 2D E3 
   415)    137812.4  Rx         0247  8  40 08 CA 32 2D 2B 29 05 
   416)    138406.7  Rx         0069  8  16 25 25 23 D2 00 00 AA 
   417)    138766.0  Rx         0301  8  07 00 01 46 00 BE 2D E3 
   418)    138813.3  Rx         0247  8  40 08 CA 32 2D 2B 29 05 
   419)    139766.1  Rx         0301  8  07 00 01 46 00 BE 2D E3 
   420)    139811.0  Rx         0247  8  40 08 CA 32 2D 2B 29 05 
   421)    140407.0  Rx         0069  8  16 25 25 23 D8 00 00 AA 
   422)    140569.2  Rx         0033  8  90 00 2F 00 01 86 A0 01 
   423)    140765.3  Rx         0301  8  07 00 01 47 00 BE 2D E2 
   424)    140811.9  Rx         0247  8  40 08 CA 32 2D 2B 29 05 
   425)    141569.8  Rx         0043  8  0B 00 00 00 00 00 00 01 
   426)    141765.5  Rx         0301  8  07 00 01 41 00 BE 2D E2 
   427)    141809.6  Rx         0247  8  40 08 CA 32 2D 2B 29 05 
   428)    142407.2  Rx         0069  8  16 25 25 23 D8 00 00 AA 
   429)    142765.6  Rx         0301  8  07 00 01 44 00 BE 2D E3 
   430)    142810.5  Rx         0247  8  40 08 CA 32 2D 2B 29 05 
   431)    143765.6  Rx         0301  8  07 00 01 46 00 BE 2D E4 
   432)    143808.1  Rx         0247  8  40 08 CA 32 2D 2B 29 05 
   433)    144407.4  Rx         0069  8  16 25 25 23 D8 00 00 AA 
   434)    144571.8  Rx         0033  8  90 00 2F 00 01 86 A0 01 
   435)    144765.8  Rx         0301  8  07 00 01 46 00 BE 2D E2 
   436)    144808.9  Rx         0247  8  40 08 CA 32 2D 2B 29 05 
   437)    145572.5  Rx         0043  8  0B 00 00 00 00 00 00 01 
   438)    145765.9  Rx         0301  8  07 00 01 46 00 BE 2D E2 
   439)    145806.7  Rx         0247  8  40 08 CA 32 2D 2B 29 05 
   440)    146407.4  Rx         0069  8  16 25 25 22 DA 00 00 AA 
   441)    146766.0  Rx         0301  8  07 00 01 46 00 BE 2D E3 
   442)    146807.4  Rx         0247  8  40 08 CA 32 2D 2B 29 05 
   443)    147766.0  Rx         0301  8  07 00 01 46 00 BE 2D E3 
   444)    147805.0  Rx         0247  8  40 08 CA 32 2D 2B 29 05 
   445)    148407.4  Rx         0069  8  16 25 25 23 D9 00 00 AA 
   446)    148574.9  Rx         0033  8  90 00 2F 00 01 86 A0 01 
   447)    148766.1  Rx         0301  8  07 00 01 46 00 BE 2D E3 
   448)    148805.7  Rx         0247  8  40 08 CA 32 2D 2B 29 05 
   449)    149576.0  Rx         0043  8  0B 00 00 00 00 00 00 01 
   450)    149766.1  Rx         0301  8  07 00 01 49 00 BE 2D E3 
   451)    149803.3  Rx         0247  8  40 08 CA 32 2D 2B 29 05 
   452)    150407.4  Rx         0069  8  16 25 25 23 DA 00 00 AA 
   453)    150766.1  Rx         0301  8  07 00 01 4B 00 BE 2D E3 
   454)    150804.1  Rx         0247  8  40 08 CA 32 2D 2B 29 05 
   455)    151766.2  Rx         0301  8  07 00 01 4C 00 BE 2D E2 
   456)    151801.8  Rx         0247  8  40 08 CA 32 2D 2B 29 05 
   457)    152407.6  Rx         0069  8  16 25 25 23 D6 00 00 AA 
   458)    152580.0  Rx         0033  8  90 00 2F 00 01 86 A0 01 
   459)    152766.4  Rx         0301  8  07 00 01 4C 00 BE 2D E2 
   460)    152802.7  Rx         0247  8  40 08 CA 32 2D 2B 29 05 
   461)    153581.4  Rx         0043  8  0C 00 00 00 00 00 00 01 
   462)    153766.5  Rx         0301  8  07 00 01 4C 00 BE 2D E2 
   463)    153800.4  Rx         0247  8  40 08 CA 32 2D 2B 29 05 
   464)    154407.7  Rx         0069  8  16 25 25 23 D6 00 00 AA 
   465)    154766.6  Rx         0301  8  07 00 01 4B 00 BE 2D E3 
   466)    154801.1  Rx         0247  8  40 08 CA 32 2D 2B 29 05 
   467)    155766.5  Rx         0301  8  07 00 01 48 00 BE 2D E3 
   468)    155798.7  Rx         0247  8  40 08 CA 32 2D 2B 29 05 
   469)    156407.7  Rx         0069  8  16 25 25 23 D8 00 00 AA 
   470)    156584.9  Rx         0033  8  90 00 2F 00 01 86 A0 01 
   471)    156765.7  Rx         0301  8  07 00 01 49 00 BE 2D E3 
   472)    156799.6  Rx         0247  8  40 08 CA 32 2D 2B 29 05 
   473)    157586.0  Rx         0043  8  0C 00 00 00 00 00 00 01 
   474)    157765.7  Rx         0301  8  07 00 01 47 00 BE 2D E3 
   475)    157797.1  Rx         0247  8  40 08 CA 32 2D 2B 29 05 
   476)    158407.7  Rx         0069  8  16 25 25 24 D7 00 00 AA 
   477)    158765.7  Rx         0301  8  07 00 01 4A 00 BE 2D E4 
   478)    158798.0  Rx         0247  8  40 08 CA 32 2D 2B 29 05 
   479)    159765.7  Rx         0301  8  07 00 01 4C 00 BE 2D E3 
   480)    159795.6  Rx         0247  8  40 08 CA 32 2D 2B 29 05 
   481)    160407.7  Rx         0069  8  16 25 25 24 D7 00 00 AA 
   482)    160589.5  Rx         0033  8  90 00 2F 00 01 86 A0 01 
   483)    160765.8  Rx         0301  8  07 00 01 4A 00 BE 2D E4 
   484)    160796.3  Rx         0247  8  40 08 CA 32 2D 2B 29 05 
   485)    161590.7  Rx         0043  8  0B 00 00 00 00 00 00 01 
   486)    161765.8  Rx         0301  8  07 00 01 50 00 BE 2D E3 
   487)    161793.9  Rx         0247  8  40 08 CA 32 2D 2B 29 05 
   488)    162407.8  Rx         0069  8  16 25 25 24 D7 00 00 AA 
   489)    162765.9  Rx         0301  8  07 00 01 51 00 BE 2D E3 
   490)    162795.0  Rx         0247  8  40 08 D0 32 2D 2B 29 05 
   491)    163765.8  Rx         0301  8  07 00 01 52 00 BE 2D E3 
   492)    163792.3  Rx         0247  8  40 08 D0 32 2D 2B 29 05 
   493)    164438.7  Rx         0069  8  16 25 25 23 D7 00 00 AA 
   494)    164594.3  Rx         0033  8  90 00 2E 00 01 86 A0 01 
   495)    164766.0  Rx         0301  8  07 00 01 53 00 BE 2D E3 
   496)    164793.4  Rx         0247  8  40 08 D0 32 2D 2B 29 05 
   497)    165595.6  Rx         0043  8  0C 00 00 00 00 00 00 01 
   498)    165766.1  Rx         0301  8  07 00 01 54 00 BE 2D E3 
   499)    165790.8  Rx         0247  8  40 08 D0 32 2D 2B 29 05 
   500)    166538.9  Rx         0069  8  16 25 25 23 D7 00 00 AA 
   501)    166766.0  Rx         0301  8  07 00 01 54 00 BE 2D E3 
   502)    166791.6  Rx         0247  8  40 08 CA 32 2D 2B 29 05 
   503)    167766.1  Rx         0301  8  07 00 01 5C 00 BE 2D E3 
   504)    167789.1  Rx         0247  8  40 08 CA 32 2D 2B 29 05 
   505)    168599.2  Rx         0033  8  90 00 2E 00 01 86 A0 01 
   506)    168639.1  Rx         0069  8  16 25 25 23 D9 00 00 AA 
   507)    168766.3  Rx         0301  8  07 00 01 58 00 BE 2D E3 
   508)    168789.9  Rx         0247  8  40 08 CA 32 2D 2B 29 05 
   509)    169600.5  Rx         0043  8  0B 00 00 00 00 00 00 01 
   510)    169766.3  Rx         0301  8  07 00 01 57 00 BE 2D E3 
   511)    169787.5  Rx         0247  8  40 08 CA 32 2D 2B 29 05 
   512)    170739.0  Rx         0069  8  16 25 25 23 D8 00 00 AA 
   513)    170766.3  Rx         0301  8  07 00 01 59 00 BE 2D E3 
   514)    170788.3  Rx         0247  8  40 08 CA 32 2D 2B 29 05 
   515)    171766.3  Rx         0301  8  07 00 01 5A 00 BE 2D E3 
   516)    171786.0  Rx         0247  8  40 08 CA 32 2D 2B 29 05 
   517)    172604.4  Rx         0033  8  90 00 2E 00 01 86 A0 01 
   518)    172766.3  Rx         0301  8  07 00 01 5A 00 BE 2D E3 
   519)    172786.7  Rx         0247  8  40 08 CA 32 2D 2B 29 05 
   520)    172839.2  Rx         0069  8  16 25 25 23 D8 00 00 AA 
   521)    173605.4  Rx         0043  8  0B 00 00 00 00 00 00 01 
   522)    173766.4  Rx         0301  8  07 00 01 5D 00 BE 2D E4 
   523)    173784.3  Rx         0247  8  40 08 CA 32 2D 2B 29 05 
   524)    174766.4  Rx         0301  8  07 00 01 5C 00 BE 2D E3 
   525)    174785.1  Rx         0247  8  40 08 CA 32 2D 2B 29 05 
   526)    174939.4  Rx         0069  8  16 25 25 23 D8 00 00 AA 
   527)    175766.5  Rx         0301  8  07 00 01 5A 00 BE 2D E3 
   528)    175782.7  Rx         0247  8  40 08 CA 32 2D 2B 29 05 
   529)    176608.6  Rx         0033  8  90 00 2E 00 01 86 A0 01 
   530)    176765.5  Rx         0301  8  07 00 01 5A 00 BE 2D E3 
   531)    176783.5  Rx         0247  8  40 08 CA 32 2D 2B 29 05 
   532)    177039.4  Rx         0069  8  16 25 25 23 D2 00 00 AA 
   533)    177609.6  Rx         0043  8  0B 00 00 00 00 00 00 01 
   534)    177765.7  Rx         0301  8  07 00 01 5C 00 BE 2D E4 
   535)    177781.2  Rx         0247  8  40 08 CA 32 2D 2B 29 05 
   536)    178765.6  Rx         0301  8  07 00 01 5D 00 BE 2D E4 
   537)    178781.9  Rx         0247  8  40 08 CA 32 2D 2B 29 05 
   538)    179139.6  Rx         0069  8  16 25 25 23 D2 00 00 AA 
   539)    179765.6  Rx         0301  8  07 00 01 5E 00 BE 2D E3 
   540)    179779.6  Rx         0247  8  40 08 CA 32 2D 2B 29 05 
   541)    180408.1  Rx         0069  8  16 25 25 23 D2 00 00 AA 
   542)    180612.8  Rx         0033  8  90 00 2E 00 01 86 A0 01 
   543)    180765.8  Rx         0301  8  07 00 01 5E 00 BE 2D E3 
   544)    180780.3  Rx         0247  8  40 08 CA 32 2D 2B 29 05 
   545)    181613.8  Rx         0043  8  0C 00 00 00 00 00 00 01 
   546)    181765.9  Rx         0301  8  07 00 01 5D 00 BE 2D E3 
   547)    181778.0  Rx         0247  8  40 08 CA 32 2D 2B 29 05 
   548)    182407.9  Rx         0069  8  16 25 25 23 D8 00 00 AA 
   549)    182766.0  Rx         0301  8  07 00 01 5D 00 BE 2D E3 
   550)    182778.7  Rx         0247  8  40 08 CA 32 2D 2B 29 05 
   551)    183766.0  Rx         0301  8  07 00 01 5E 00 BE 2D E3 
   552)    183776.4  Rx         0247  8  40 08 CA 32 2D 2B 29 05 
   553)    184408.1  Rx         0069  8  16 25 25 24 D6 00 00 AA 
   554)    184617.1  Rx         0033  8  90 00 2E 00 01 86 A0 01 
   555)    184766.1  Rx         0301  8  07 00 01 5E 00 BE 2D E4 
   556)    184777.2  Rx         0247  8  40 08 CA 32 2D 2B 29 05 
   557)    185618.1  Rx         0043  8  0B 00 00 00 00 00 00 01 
   558)    185766.2  Rx         0301  8  07 00 01 5D 00 BE 2D E4 
   559)    185774.8  Rx         0247  8  40 08 CA 32 2D 2B 29 05 
   560)    186408.1  Rx         0069  8  16 25 25 24 D4 00 00 AA 
   561)    186766.2  Rx         0301  8  07 00 01 5E 00 BE 2D E3 
   562)    186775.5  Rx         0247  8  40 08 CA 32 2D 2B 29 05 
   563)    187766.2  Rx         0301  8  07 00 01 5E 00 BE 2D E4 
   564)    187773.2  Rx         0247  8  40 08 CA 32 2D 2B 29 05 
   565)    188408.1  Rx         0069  8  16 25 25 23 D7 00 00 AA 
   566)    188621.0  Rx         0033  8  90 00 2E 00 01 86 A0 01 
   567)    188766.4  Rx         0301  8  07 00 01 5F 00 BE 2D E3 
   568)    188773.9  Rx         0247  8  40 08 CA 32 2D 2B 29 05 
   569)    189621.5  Rx         0043  8  0B 00 00 00 00 00 00 01 
   570)    189765.4  Rx         0301  8  07 00 01 5A 00 BE 2D E3 
   571)    189771.5  Rx         0247  8  40 08 CA 32 2D 2B 29 05 
   572)    190408.2  Rx         0069  8  16 25 25 23 D7 00 00 AA 
   573)    190765.6  Rx         0301  8  07 00 01 58 00 BE 2D E4 
   574)    190772.4  Rx         0247  8  40 08 CA 32 2D 2B 29 05 
   575)    191765.6  Rx         0301  8  07 00 01 54 00 BE 2D E3 
   576)    191770.0  Rx         0247  8  40 08 CA 32 2D 2B 29 05 
   577)    192408.2  Rx         0069  8  16 25 25 23 D7 00 00 AA 
   578)    192623.0  Rx         0033  8  90 00 2E 00 01 86 A0 01 
   579)    192765.8  Rx         0301  8  07 00 01 54 00 BE 2D E4 
   580)    192770.7  Rx         0247  8  40 08 CA 32 2D 2B 29 05 
   581)    193624.3  Rx         0043  8  0C 00 00 00 00 00 00 01 
   582)    193765.8  Rx         0301  8  07 00 01 55 00 BE 2D E3 
   583)    193768.4  Rx         0247  8  40 08 CA 32 2D 2B 29 05 
   584)    194408.3  Rx         0069  8  16 25 25 23 D8 00 00 AA 
   585)    194766.0  Rx         0301  8  07 00 01 57 00 BE 2D E3 
   586)    194769.2  Rx         0247  8  40 08 CA 32 2D 2B 29 05 
   587)    195765.9  Rx         0301  8  07 00 01 5C 00 BE 2D E3 
   588)    195766.9  Rx         0247  8  40 08 CA 32 2D 2B 29 05 
   589)    196408.4  Rx         0069  8  16 25 25 23 D9 00 00 AA 
   590)    196625.9  Rx         0033  8  90 00 2E 00 01 86 A0 01 
   591)    196766.0  Rx         0301  8  07 00 01 61 00 BE 2D E3 
   592)    196767.5  Rx         0247  8  40 08 CA 32 2D 2B 29 05 
   593)    197626.3  Rx         0043  8  0B 00 00 00 00 00 00 01 
   594)    197765.2  Rx         0247  8  40 08 CA 32 2D 2B 29 05 
   595)    197766.1  Rx         0301  8  07 00 01 65 00 BE 2D E3 
   596)    198408.2  Rx         0069  8  16 25 25 23 D9 01 00 AA 
   597)    198765.9  Rx         0247  8  40 08 CA 32 2D 2B 29 05 
   598)    198766.2  Rx         0301  8  07 00 01 66 00 BE 2D E4 
   599)    199763.6  Rx         0247  8  40 08 CA 32 2D 2B 29 05 
   600)    199766.1  Rx         0301  8  07 00 01 65 00 BE 2D E3 
   601)    200408.2  Rx         0069  8  16 25 25 22 DB 00 00 AA 
   602)    200627.6  Rx         0033  8  90 00 2E 00 01 86 A0 01 
   603)    200764.3  Rx         0247  8  40 08 CA 32 2D 2B 29 05 
   604)    200766.3  Rx         0301  8  07 00 01 65 00 BE 2D E3 
   605)    201628.3  Rx         0043  8  0B 00 00 00 00 00 00 01 
   606)    201762.0  Rx         0247  8  40 08 CA 32 2D 2B 29 05 
   607)    201766.5  Rx         0301  8  07 00 01 65 00 BE 2D E3 
   608)    202408.3  Rx         0069  8  16 25 25 23 D4 00 00 AA 
   609)    202762.8  Rx         0247  8  40 08 CA 32 2D 2B 29 05 
   610)    202765.5  Rx         0301  8  07 00 01 64 00 BE 2D E3 
   611)    203760.4  Rx         0247  8  40 08 CA 32 2D 2B 29 05 
   612)    203765.5  Rx         0301  8  07 00 01 60 00 BE 2D E3 
   613)    204408.4  Rx         0069  8  16 25 25 23 D4 00 00 AA 
   614)    204630.0  Rx         0033  8  90 00 2E 00 01 86 A0 01 
   615)    204761.2  Rx         0247  8  40 08 CA 32 2D 2B 29 05 
   616)    204765.8  Rx         0301  8  07 00 01 5F 00 BE 2D E4 
   617)    205630.8  Rx         0043  8  0C 00 00 00 00 00 00 01 
   618)    205758.9  Rx         0247  8  40 08 CA 32 2D 2B 29 05 
   619)    205766.0  Rx         0301  8  07 00 01 5C 00 BE 2D E3 
   620)    206441.8  Rx         0069  8  16 25 25 23 D7 00 00 AA 
   621)    206759.6  Rx         0247  8  40 08 CA 32 2D 2B 29 05 
   622)    206765.9  Rx         0301  8  07 00 01 5E 00 BE 2D E3 
   623)    207757.3  Rx         0247  8  40 08 CA 32 2D 2B 29 05 
   624)    207765.9  Rx         0301  8  07 00 01 62 00 BE 2D E3 
   625)    208541.8  Rx         0069  8  16 25 25 23 D7 00 00 AA 
   626)    208632.9  Rx         0033  8  90 00 2E 00 01 86 A0 01 
   627)    208758.0  Rx         0247  8  40 08 CA 32 2D 2B 29 05 
   628)    208766.1  Rx         0301  8  07 00 01 63 00 BE 2D E4 
   629)    209633.6  Rx         0043  8  0B 00 00 00 00 00 00 01 
   630)    209755.7  Rx         0247  8  40 08 CA 32 2D 2B 29 05 
   631)    209766.2  Rx         0301  8  07 00 01 64 00 BE 2D E3 
   632)    210642.1  Rx         0069  8  16 25 25 23 D8 00 00 AA 
   633)    210756.4  Rx         0247  8  40 08 CA 32 2D 2B 29 05 
   634)    210766.2  Rx         0301  8  07 00 01 65 00 BE 2D E3 
   635)    211754.1  Rx         0247  8  40 08 CA 32 2D 2B 29 05 
   636)    211766.3  Rx         0301  8  07 00 01 63 00 BE 2D E3 
   637)    212635.1  Rx         0033  8  90 00 2E 00 01 86 A0 01 
   638)    212742.2  Rx         0069  8  16 25 25 23 D8 00 00 AA 
   639)    212754.8  Rx         0247  8  40 08 CA 32 2D 2B 29 05 
   640)    212766.4  Rx         0301  8  07 00 01 64 00 BE 2D E4 
   641)    213635.7  Rx         0043  8  0B 00 00 00 00 00 00 01 
   642)    213752.4  Rx         0247  8  40 08 CA 32 2D 2B 29 05 
   643)    213765.4  Rx         0301  8  07 00 01 62 00 BE 2D E3 
   644)    214753.2  Rx         0247  8  40 08 CA 32 2D 2B 29 05 
   645)    214766.3  Rx         0301  8  07 00 01 62 00 BE 2D E4 
   646)    214842.2  Rx         0069  8  16 25 25 23 D5 00 00 AA 
   647)    215750.9  Rx         0247  8  40 08 CA 32 2D 2B 29 05 
   648)    215765.5  Rx         0301  8  07 00 01 62 00 BE 2D E3 
   649)    216636.8  Rx         0033  8  90 00 2E 00 01 86 A0 01 
   650)    216751.7  Rx         0247  8  40 08 CA 32 2D 2B 29 05 
   651)    216765.6  Rx         0301  8  07 00 01 61 00 BE 2D E3 
   652)    216942.5  Rx         0069  8  16 25 25 23 D6 00 00 AA 
   653)    217637.2  Rx         0043  8  0B 00 00 00 00 00 00 01 
   654)    217749.2  Rx         0247  8  40 08 CA 32 2D 2B 29 05 
   655)    217765.7  Rx         0301  8  07 00 01 61 00 BE 2D E4 
   656)    218750.0  Rx         0247  8  40 08 CA 32 2D 2B 29 05 
   657)    218765.6  Rx         0301  8  07 00 01 62 00 BE 2D E4 
   658)    219042.7  Rx         0069  8  16 25 25 23 D4 00 00 AA 
   659)    219747.6  Rx         0247  8  40 08 CA 32 2D 2B 29 05 
   660)    219765.7  Rx         0301  8  07 00 01 63 00 BE 2D E4 
   661)    220638.6  Rx         0033  8  90 00 2E 00 01 86 A0 01 
   662)    220748.3  Rx         0247  8  40 08 CA 32 2D 2B 29 05 
   663)    220765.7  Rx         0301  8  07 00 01 64 00 BE 2D E3 
   664)    221142.8  Rx         0069  8  16 25 25 23 D4 00 00 AA 
   665)    221639.9  Rx         0043  8  0B 00 00 00 00 00 00 01 
   666)    221746.1  Rx         0247  8  40 08 CA 32 2D 2B 29 05 
   667)    221765.9  Rx         0301  8  07 00 01 65 00 BE 2D E3 
   668)    222408.6  Rx         0069  8  16 25 25 23 D4 00 00 AA 
   669)    222746.8  Rx         0247  8  40 08 CA 32 2D 2B 29 05 
   670)    222765.9  Rx         0301  8  07 00 01 64 00 BE 2D E4 
   671)    223744.4  Rx         0247  8  40 08 CA 32 2D 2B 29 05 
   672)    223765.8  Rx         0301  8  07 00 01 65 00 BE 2D E3 
   673)    224408.6  Rx         0069  8  16 25 25 23 D7 00 00 AA 
   674)    224643.2  Rx         0033  8  90 00 2E 00 01 86 A0 01 
   675)    224745.2  Rx         0247  8  40 08 CA 32 2D 2B 29 05 
   676)    224766.0  Rx         0301  8  07 00 01 65 00 BE 2D E3 
   677)    225644.3  Rx         0043  8  0C 00 00 00 00 00 00 01 
   678)    225742.8  Rx         0247  8  40 08 CA 32 2D 2B 29 05 
   679)    225766.0  Rx         0301  8  07 00 01 67 00 BE 2D E3 
   680)    226408.7  Rx         0069  8  16 24 25 23 D1 00 00 AA 
   681)    226743.6  Rx         0247  8  40 08 CA 32 2D 2B 29 05 
   682)    226766.1  Rx         0301  8  07 00 01 65 00 BE 2D E3 
   683)    227741.2  Rx         0247  8  40 08 CA 32 2D 2B 29 05 
   684)    227766.0  Rx         0301  8  07 00 01 66 00 BE 2D E3 
   685)    228408.8  Rx         0069  8  16 24 25 23 D1 00 00 AA 
   686)    228647.7  Rx         0033  8  90 00 2E 00 01 86 A0 01 
   687)    228742.0  Rx         0247  8  40 08 CA 32 2D 2B 29 05 
   688)    228766.3  Rx         0301  8  07 00 01 64 00 BE 2D E4 
   689)    229648.3  Rx         0043  8  0C 00 00 00 00 00 00 01 
   690)    229739.6  Rx         0247  8  40 08 CA 32 2D 2B 29 05 
   691)    229765.3  Rx         0301  8  07 00 01 61 00 BE 2D E4 
   692)    230408.7  Rx         0069  8  16 25 25 23 D8 00 00 AA 
   693)    230740.4  Rx         0247  8  40 08 CA 32 2D 2B 29 05 
   694)    230765.5  Rx         0301  8  07 00 01 60 00 BE 2D E4 
   695)    231738.0  Rx         0247  8  40 08 CA 32 2D 2B 29 05 
   696)    231765.4  Rx         0301  8  07 00 01 60 00 BE 2D E4 
   697)    232408.7  Rx         0069  8  16 25 25 23 D8 00 00 AA 
   698)    232650.3  Rx         0033  8  90 00 2E 00 01 86 A0 01 
   699)    232738.8  Rx         0247  8  40 08 CA 32 2D 2B 29 05 
   700)    232765.5  Rx         0301  8  07 00 01 60 00 BE 2D E3 
   701)    233651.1  Rx         0043  8  0C 00 00 00 00 00 00 01 
   702)    233736.5  Rx         0247  8  40 08 CA 32 2D 2B 29 05 
   703)    233765.6  Rx         0301  8  07 00 01 61 00 BE 2D E3 
   704)    234408.9  Rx         0069  8  16 25 25 23 D1 00 00 AA 
   705)    234737.2  Rx         0247  8  40 08 CA 32 2D 2B 29 05 
   706)    234765.7  Rx         0301  8  07 00 01 5F 00 BE 2D E4 
   707)    235734.9  Rx         0247  8  40 08 CA 32 2D 2B 29 05 
   708)    235765.7  Rx         0301  8  07 00 01 60 00 BE 2D E3 
   709)    236408.9  Rx         0069  8  16 25 25 24 D9 00 00 AA 
   710)    236653.3  Rx         0033  8  90 00 2E 00 01 86 A0 01 
   711)    236735.6  Rx         0247  8  00 08 CA 32 2D 2B 29 05 
   712)    236765.9  Rx         0301  8  07 00 01 60 00 BE 2D E3 
   713)    237653.9  Rx         0043  8  0B 00 00 00 00 00 00 01 
   714)    237733.2  Rx         0247  8  40 08 CA 32 2D 2B 29 05 
   715)    237765.9  Rx         0301  8  07 00 01 60 00 BE 2D E3 
   716)    238408.8  Rx         0069  8  16 25 25 23 D8 00 00 AA 
   717)    238733.9  Rx         0247  8  40 08 CA 32 2D 2B 29 05 
   718)    238765.9  Rx         0301  8  07 00 01 61 00 BE 2D E3 
   719)    239731.7  Rx         0247  8  40 08 CA 32 2D 2B 29 05 
   720)    239765.9  Rx         0301  8  07 00 01 5F 00 BE 2D E3 
   721)    240408.6  Rx         0069  8  16 25 25 23 D0 00 00 AA 
   722)    240656.1  Rx         0033  8  90 00 2E 00 01 86 A0 01 
   723)    240732.2  Rx         0247  8  00 08 CA 32 2D 2B 29 05 
   724)    240765.9  Rx         0301  8  07 00 01 5D 00 BE 2D E3 
   725)    241657.2  Rx         0043  8  0B 00 00 00 00 00 00 01 
   726)    241730.0  Rx         0247  8  40 08 CA 32 2D 2B 29 05 
   727)    241766.0  Rx         0301  8  07 00 01 5D 00 BE 2D E4 
   728)    242408.8  Rx         0069  8  16 25 25 23 D0 00 00 AA 
   729)    242730.8  Rx         0247  8  40 08 CA 32 2D 2B 29 05 
   730)    242766.2  Rx         0301  8  07 00 01 5E 00 BE 2D E4 
   731)    243728.5  Rx         0247  8  40 08 CA 32 2D 2B 29 05 
   732)    243766.2  Rx         0301  8  07 00 01 5E 00 BE 2D E3 
   733)    244409.0  Rx         0069  8  16 25 25 23 CD 00 00 AA 
   734)    244659.6  Rx         0033  8  90 00 2E 00 01 86 A0 01 
   735)    244729.3  Rx         0247  8  40 08 CA 32 2D 2B 29 05 
   736)    244765.4  Rx         0301  8  07 00 01 5D 00 BE 2D E3 
   737)    245660.7  Rx         0043  8  0B 00 00 00 00 00 00 01 
   738)    245726.9  Rx         0247  8  40 08 CA 32 2D 2B 29 05 
   739)    245765.5  Rx         0301  8  07 00 01 5D 00 BE 2D E3 
   740)    246409.0  Rx         0069  8  16 24 25 23 DB 00 00 AA 
   741)    246727.8  Rx         0247  8  40 08 CA 32 2D 2B 29 05 
   742)    246765.7  Rx         0301  8  07 00 01 57 00 BE 2D E3 
   743)    247725.4  Rx         0247  8  00 08 CA 32 2D 2B 29 05 
   744)    247765.8  Rx         0301  8  07 00 01 55 00 BE 2D E4 
   745)    248444.4  Rx         0069  8  16 25 25 23 DA 00 00 AA 
   746)    248663.4  Rx         0033  8  90 00 2F 00 01 86 A0 01 
   747)    248726.2  Rx         0247  8  40 08 CA 32 2D 2B 29 05 
   748)    248766.0  Rx         0301  8  07 00 01 53 00 BE 2D E3 
   749)    249664.3  Rx         0043  8  0B 00 00 00 00 00 00 01 
   750)    249723.8  Rx         0247  8  00 08 CA 32 2D 2B 29 05 
   751)    249766.0  Rx         0301  8  07 00 01 55 00 BE 2D E3 
   752)    250544.7  Rx         0069  8  16 25 25 23 DA 00 00 AA 
   753)    250724.5  Rx         0247  8  40 08 CA 32 2D 2B 29 05 
   754)    250766.0  Rx         0301  8  07 00 01 5B 00 BE 2D E3 
   755)    251722.1  Rx         0247  8  40 08 CA 32 2D 2B 29 05 
   756)    251766.0  Rx         0301  8  07 00 01 5E 00 BE 2D E3 
   757)    252644.9  Rx         0069  8  16 25 25 23 D8 00 00 AA 
   758)    252666.4  Rx         0033  8  90 00 2E 00 01 86 A0 01 
   759)    252722.8  Rx         0247  8  00 08 CA 32 2D 2B 29 05 
   760)    252766.0  Rx         0301  8  07 00 01 64 00 BE 2D E3 
   761)    253667.2  Rx         0043  8  0B 00 00 00 00 00 00 01 
   762)    253720.4  Rx         0247  8  40 08 CA 32 2D 2B 29 05 
   763)    253766.1  Rx         0301  8  07 00 01 68 00 BE 2D E3 
   764)    254721.3  Rx         0247  8  40 08 CA 32 2D 2B 29 05 
   765)    254745.2  Rx         0069  8  16 25 25 23 DA 00 00 AA 
   766)    254766.2  Rx         0301  8  07 00 01 6C 00 BE 2D E3 
   767)    255718.9  Rx         0247  8  40 08 CA 32 2D 2B 29 05 
   768)    255766.2  Rx         0301  8  07 00 01 6C 00 BE 2D E3 
   769)    256669.2  Rx         0033  8  90 00 2E 00 01 86 A0 01 
   770)    256719.7  Rx         0247  8  40 08 CA 32 2D 2B 29 05 
   771)    256765.3  Rx         0301  8  07 00 01 68 00 BE 2D E3 
   772)    256845.3  Rx         0069  8  16 25 25 23 D5 00 00 AA 
   773)    257669.7  Rx         0043  8  0B 00 00 00 00 00 00 01 
   774)    257717.3  Rx         0247  8  00 08 CA 32 2D 2B 29 05 
   775)    257765.4  Rx         0301  8  07 00 01 67 00 BE 2D E3 
   776)    258718.1  Rx         0247  8  40 08 CA 32 2D 2B 29 05 
   777)    258765.3  Rx         0301  8  07 00 01 68 00 BE 2D E3 
   778)    258945.5  Rx         0069  8  16 25 25 23 D4 00 00 AA 
   779)    259715.7  Rx         0247  8  40 08 CA 32 2D 2B 29 05 
   780)    259765.4  Rx         0301  8  07 00 01 68 00 BE 2D E3 
   781)    260671.4  Rx         0033  8  90 00 2E 00 01 86 A0 01 
   782)    260716.6  Rx         0247  8  40 08 CA 32 2D 2B 29 05 
   783)    260765.6  Rx         0301  8  07 00 01 66 00 BE 2D E3 
   784)    261045.9  Rx         0069  8  16 25 25 23 D6 00 00 AA 
   785)    261672.0  Rx         0043  8  0C 00 00 00 00 00 00 01 
   786)    261714.2  Rx         0247  8  40 08 CA 32 2D 2B 29 05 
   787)    261765.8  Rx         0301  8  07 00 01 66 00 BE 2D E3 
   788)    262714.9  Rx         0247  8  40 08 CA 32 2D 2B 29 05 
   789)    262765.8  Rx         0301  8  07 00 01 62 00 BE 2D E3 
   790)    263146.1  Rx         0069  8  16 25 25 23 D6 00 00 AA 
   791)    263712.5  Rx         0247  8  40 08 CA 32 2D 2B 29 05 
   792)    263765.9  Rx         0301  8  07 00 01 62 00 BE 2D E3 
   793)    264409.1  Rx         0069  8  16 25 25 23 D6 00 00 AA 
   794)    264673.4  Rx         0033  8  90 00 2E 00 01 86 A0 01 
   795)    264713.2  Rx         0247  8  40 08 CA 32 2D 2B 29 05 
   796)    264766.0  Rx         0301  8  07 00 01 61 00 BE 2D E3 
   797)    265674.1  Rx         0043  8  0B 00 00 00 00 00 00 01 
   798)    265710.9  Rx         0247  8  40 08 CA 32 2D 2B 29 05 
   799)    265766.1  Rx         0301  8  07 00 01 62 00 BE 2D E4 
   800)    266409.2  Rx         0069  8  16 25 25 23 D7 00 00 AA 
   801)    266711.6  Rx         0247  8  40 08 CA 32 2D 2B 29 05 
   802)    266765.1  Rx         0301  8  07 00 01 65 00 BE 2D E3 
   803)    267709.2  Rx         0247  8  40 08 CA 32 2D 2B 29 05 
   804)    267766.1  Rx         0301  8  07 00 01 67 00 BE 2D E3 
   805)    268409.1  Rx         0069  8  16 24 25 24 D6 00 00 AA 
   806)    268675.8  Rx         0033  8  90 00 2E 00 01 86 A0 01 
   807)    268710.1  Rx         0247  8  40 08 CA 32 2D 2B 29 05 
   808)    268765.1  Rx         0301  8  07 00 01 69 00 BE 2D E3 
   809)    269676.4  Rx         0043  8  0B 00 00 00 00 00 00 01 
   810)    269707.6  Rx         0247  8  40 08 CA 32 2D 2B 29 05 
   811)    269765.1  Rx         0301  8  07 00 01 6E 00 BE 2D E4 
   812)    270409.1  Rx         0069  8  16 25 25 23 D8 00 00 AA 
   813)    270708.4  Rx         0247  8  40 08 CA 32 2D 2B 29 05 
   814)    270765.2  Rx         0301  8  07 00 01 71 00 BE 2D E3 
   815)    271706.0  Rx         0247  8  40 08 CA 32 2D 2B 29 05 
   816)    271765.2  Rx         0301  8  07 00 01 71 00 BE 2D E3 
   817)    272409.3  Rx         0069  8  16 25 25 23 D7 00 00 AA 
   818)    272678.3  Rx         0033  8  90 00 2E 00 01 86 A0 01 
   819)    272706.8  Rx         0247  8  40 08 CA 32 2D 2B 29 05 
   820)    272765.4  Rx         0301  8  07 00 01 6C 00 BE 2D E3 
   821)    273679.0  Rx         0043  8  0C 00 00 00 00 00 00 01 
   822)    273704.4  Rx         0247  8  40 08 CA 32 2D 2B 29 05 
   823)    273765.5  Rx         0301  8  07 00 01 67 00 BE 2D E4 
   824)    274409.3  Rx         0069  8  16 25 25 23 D6 00 00 AA 
   825)    274705.2  Rx         0247  8  40 08 CA 32 2D 2B 29 05 
   826)    274765.7  Rx         0301  8  07 00 01 67 00 BE 2D E3 
   827)    275702.8  Rx         0247  8  40 08 CA 32 2D 2B 29 05 
   828)    275765.7  Rx         0301  8  07 00 01 67 00 BE 2D E3 
   829)    276409.3  Rx         0069  8  16 25 25 23 D5 00 00 AA 
   830)    276680.8  Rx         0033  8  90 00 2F 00 01 86 A0 01 
   831)    276703.6  Rx         0247  8  40 08 CA 32 2D 2B 29 05 
   832)    276765.8  Rx         0301  8  07 00 01 67 00 BE 2D E3 
   833)    277681.5  Rx         0043  8  0B 00 00 00 00 00 00 01 
   834)    277701.3  Rx         0247  8  40 08 CA 32 2D 2B 29 05 
   835)    277765.9  Rx         0301  8  07 00 01 67 00 BE 2D E3 
   836)    278409.4  Rx         0069  8  16 25 25 23 D5 00 00 AA 
   837)    278702.1  Rx         0247  8  40 08 CA 32 2D 2B 29 05 
   838)    278765.9  Rx         0301  8  07 00 01 6C 00 BE 2D E3 
   839)    279699.7  Rx         0247  8  40 08 CA 32 2D 2B 29 05 
   840)    279765.9  Rx         0301  8  07 00 01 6F 00 BE 2D E3 
   841)    280409.4  Rx         0069  8  16 25 25 24 D7 00 00 AA 
   842)    280683.4  Rx         0033  8  90 00 2F 00 01 86 A0 01 
   843)    280700.4  Rx         0247  8  40 08 CA 32 2D 2B 29 05 
   844)    280766.0  Rx         0301  8  07 00 01 71 00 BE 2D E3 
   845)    281684.0  Rx         0043  8  0B 00 00 00 00 00 00 01 
   846)    281698.1  Rx         0247  8  40 08 CA 32 2D 2B 29 05 
   847)    281765.1  Rx         0301  8  07 00 01 70 00 BE 2D E3 
   848)    282409.4  Rx         0069  8  16 25 25 23 D3 00 00 AA 
   849)    282698.8  Rx         0247  8  40 08 CA 32 2D 2B 29 05 
   850)    282765.0  Rx         0301  8  07 00 01 70 00 BE 2D E3 
   851)    283696.4  Rx         0247  8  40 08 CA 32 2D 2B 29 05 
   852)    283766.0  Rx         0301  8  07 00 01 73 00 BE 2D E3 
   853)    284409.4  Rx         0069  8  16 25 25 23 D3 00 00 AA 
   854)    284686.3  Rx         0033  8  90 00 2E 00 01 86 A0 01 
   855)    284697.2  Rx         0247  8  40 08 CA 32 2D 2B 29 05 
   856)    284765.2  Rx         0301  8  07 00 01 74 00 BE 2D E4 
   857)    285687.1  Rx         0043  8  0B 00 00 00 00 00 00 01 
   858)    285694.9  Rx         0247  8  40 08 CA 32 2D 2B 29 05 
   859)    285765.2  Rx         0301  8  07 00 01 75 00 BE 2D E3 
   860)    286409.5  Rx         0069  8  16 25 25 23 D3 00 00 AA 
   861)    286695.6  Rx         0247  8  40 08 CA 32 2D 2B 29 05 
   862)    286765.3  Rx         0301  8  07 00 01 6E 00 BE 2D E3 
   863)    287693.3  Rx         0247  8  40 08 CA 32 2D 2B 29 05 
   864)    287765.4  Rx         0301  8  07 00 01 6B 00 BE 2D E3 
   865)    288409.5  Rx         0069  8  16 25 25 23 D3 00 00 AA 
   866)    288689.2  Rx         0033  8  90 00 2E 00 01 86 A0 01 
   867)    288694.1  Rx         0247  8  40 08 CA 32 2D 2B 29 05 
   868)    288765.6  Rx         0301  8  07 00 01 68 00 BE 2D E4 
   869)    289689.9  Rx         0043  8  0B 00 00 00 00 00 00 01 
   870)    289691.7  Rx         0247  8  40 08 CA 32 2D 2B 29 05 
   871)    289765.7  Rx         0301  8  07 00 01 69 00 BE 2D E3 
   872)    290447.9  Rx         0069  8  16 25 25 23 D3 00 00 AA 
   873)    290692.5  Rx         0247  8  40 08 CA 32 2D 2B 29 05 
   874)    290765.8  Rx         0301  8  07 00 01 6B 00 BE 2D E4 
   875)    291690.1  Rx         0247  8  40 08 CA 32 2D 2B 29 05 
   876)    291765.8  Rx         0301  8  07 00 01 6A 00 BE 2D E3 
   877)    292548.1  Rx         0069  8  16 25 25 24 DB 00 00 AA 
   878)    292691.0  Rx         0247  8  40 08 CA 32 2D 2B 29 05 
   879)    292691.8  Rx         0033  8  90 00 2D 00 01 86 A0 01 
   880)    292766.1  Rx         0301  8  07 00 01 65 00 BE 2D E3 
   881)    293688.6  Rx         0247  8  40 08 CA 32 2D 2B 29 05 
   882)    293692.4  Rx         0043  8  0B 00 00 00 00 00 00 01 
   883)    293765.1  Rx         0301  8  07 00 01 5F 00 BE 2D E3 
   884)    294648.3  Rx         0069  8  16 25 25 23 D5 00 00 AA 
   885)    294689.4  Rx         0247  8  40 08 CA 32 2D 2B 29 05 
   886)    294765.3  Rx         0301  8  07 00 01 5B 00 BE 2D E3 
   887)    295687.0  Rx         0247  8  40 08 CA 32 2D 2B 29 05 
   888)    295765.3  Rx         0301  8  07 00 01 55 00 BE 2D E3 
   889)    296687.8  Rx         0247  8  40 08 CA 32 2D 2B 29 05 
   890)    296694.0  Rx         0033  8  90 00 2D 00 01 86 A0 01 
   891)    296748.5  Rx         0069  8  16 25 25 23 DB 00 00 AA 
   892)    296765.4  Rx         0301  8  07 00 01 5D 00 BE 2D E4 
   893)    297685.3  Rx         0247  8  40 08 CA 32 2D 2B 29 05 
   894)    297694.7  Rx         0043  8  0B 00 00 00 00 00 00 01 
   895)    297765.3  Rx         0301  8  07 00 01 63 00 BE 2D E3 
   896)    298686.1  Rx         0247  8  40 08 CA 32 2D 2B 29 05 
   897)    298765.3  Rx         0301  8  07 00 01 67 00 BE 2D E3 
   898)    298848.6  Rx         0069  8  16 25 25 23 D9 00 00 AA 
   899)    299683.7  Rx         0247  8  40 08 CA 32 2D 2B 29 05 
   900)    299765.3  Rx         0301  8  07 00 01 69 00 BE 2D E3 
   901)    300684.5  Rx         0247  8  40 08 CA 32 2D 2B 29 05 
   902)    300696.3  Rx         0033  8  90 00 2D 00 01 86 A0 01 
   903)    300765.4  Rx         0301  8  07 00 01 6A 00 BE 2D E3 
   904)    300948.6  Rx         0069  8  16 25 25 23 D4 00 00 AA 
   905)    301682.1  Rx         0247  8  40 08 CA 32 2D 2B 29 05 
   906)    301696.9  Rx         0043  8  0C 00 00 00 00 00 00 01 
   907)    301765.6  Rx         0301  8  07 00 01 66 00 BE 2D E3 
   908)    302682.9  Rx         0247  8  40 08 CA 32 2D 2B 29 05 
   909)    302765.7  Rx         0301  8  07 00 01 65 00 BE 2D E3 
   910)    303048.8  Rx         0069  8  16 25 25 23 D3 00 00 AA 
   911)    303680.5  Rx         0247  8  40 08 CA 32 2D 2B 29 05 
   912)    303765.8  Rx         0301  8  07 00 01 63 00 BE 2D E3 
   913)    304409.7  Rx         0069  8  16 25 25 23 D3 00 00 AA 
   914)    304681.3  Rx         0247  8  40 08 CA 32 2D 2B 29 05 
   915)    304698.7  Rx         0033  8  90 00 2E 00 01 86 A0 01 
   916)    304765.9  Rx         0301  8  07 00 01 64 00 BE 2D E3 
   917)    305678.9  Rx         0247  8  40 08 CA 32 2D 2B 29 05 
   918)    305699.4  Rx         0043  8  0B 00 00 00 00 00 00 01 
   919)    305766.8  Rx         0301  8  07 00 01 65 00 BE 2D E3 
   920)    306409.8  Rx         0069  8  16 25 25 23 D3 00 00 AA 
   921)    306679.7  Rx         0247  8  40 08 CA 32 2D 2B 29 05 
   922)    306765.1  Rx         0301  8  07 00 01 64 00 BE 2D E3 
   923)    307677.3  Rx         0247  8  40 08 CA 32 2D 2B 29 05 
   924)    307765.0  Rx         0301  8  07 00 01 62 00 BE 2D E3 
   925)    308409.7  Rx         0069  8  16 25 25 23 D7 00 00 AA 
   926)    308678.1  Rx         0247  8  40 08 CA 32 2D 2B 29 05 
   927)    308701.0  Rx         0033  8  90 00 2E 00 01 86 A0 01 
   928)    308765.3  Rx         0301  8  07 00 01 5E 00 BE 2D E3 
   929)    309675.7  Rx         0247  8  40 08 CA 32 2D 2B 29 05 
   930)    309701.7  Rx         0043  8  0B 00 00 00 00 00 00 01 
   931)    309765.5  Rx         0301  8  07 00 01 5D 00 BE 2D E3 
   932)    310409.8  Rx         0069  8  16 25 25 22 D1 00 00 AA 
   933)    310652.4  Rx         0247  8  40 08 CA 32 2D 2B 29 05 
   934)    310765.6  Rx         0301  8  07 00 01 5B 00 BE 2D E4 
   935)    311674.2  Rx         0247  8  40 08 CA 32 2D 2B 29 05 
   936)    311765.6  Rx         0301  8  07 00 01 5C 00 BE 2D E3 
   937)    312409.8  Rx         0069  8  16 25 24 24 D6 00 00 AA 
   938)    312674.8  Rx         0247  8  40 08 CA 32 2D 2B 29 05 
   939)    312703.5  Rx         0033  8  90 00 2D 00 01 86 A0 01 
   940)    312765.6  Rx         0301  8  07 00 01 5F 00 BE 2D E3 
   941)    313672.3  Rx         0247  8  40 08 CA 32 2D 2B 29 05 
   942)    313704.1  Rx         0043  8  0B 00 00 00 00 00 00 01 
   943)    313765.5  Rx         0301  8  07 00 01 62 00 BE 2D E3 
   944)    314409.7  Rx         0069  8  16 25 25 23 D2 00 00 AA 
   945)    314673.1  Rx         0247  8  40 08 CA 32 2D 2B 29 05 
   946)    314765.6  Rx         0301  8  07 00 01 66 00 BE 2D E4 
   947)    315670.7  Rx         0247  8  40 08 CA 32 2D 2B 29 05 
   948)    315765.5  Rx         0301  8  07 00 01 64 00 BE 2D E3 
   949)    316409.7  Rx         0069  8  16 25 25 23 D6 00 00 AA 
   950)    316671.5  Rx         0247  8  40 08 CA 32 2D 2B 29 05 
   951)    316705.7  Rx         0033  8  90 00 2E 00 01 86 A0 01 
   952)    316765.6  Rx         0301  8  07 00 01 66 00 BE 2D E3 
   953)    317669.1  Rx         0247  8  40 08 CA 32 2D 2B 29 05 
   954)    317706.3  Rx         0043  8  0B 00 00 00 00 00 00 01 
   955)    317765.6  Rx         0301  8  07 00 01 64 00 BE 2D E4 
   956)    318409.7  Rx         0069  8  16 25 25 23 D6 00 00 AA 
   957)    318669.9  Rx         0247  8  40 08 CA 32 2D 2B 29 05 
   958)    318764.7  Rx         0301  8  07 00 01 62 00 BE 2D E3 
   959)    319667.5  Rx         0247  8  40 08 CA 32 2D 2B 29 05 
   960)    319764.7  Rx         0301  8  07 00 01 64 00 BE 2D E3 
   961)    320409.6  Rx         0069  8  16 25 25 23 D6 00 00 AA 
   962)    320668.2  Rx         0247  8  40 08 CA 32 2D 2B 29 05 
   963)    320707.9  Rx         0033  8  90 00 2E 00 01 86 A0 01 
   964)    320764.8  Rx         0301  8  07 00 01 66 00 BE 2D E3 
   965)    321665.8  Rx         0247  8  40 08 CA 32 2D 2B 29 05 
   966)    321708.6  Rx         0043  8  0B 00 00 00 00 00 00 01 
   967)    321764.8  Rx         0301  8  07 00 01 6A 00 BE 2D E4 
   968)    322409.6  Rx         0069  8  16 25 25 23 D6 00 00 AA 
   969)    322666.5  Rx         0247  8  40 08 CA 32 2D 2B 29 05 
   970)    322764.8  Rx         0301  8  07 00 01 6A 00 BE 2D E3 
   971)    323664.3  Rx         0247  8  40 08 CA 32 2D 2B 29 05 
   972)    323764.8  Rx         0301  8  07 00 01 6B 00 BE 2D E3 
   973)    324409.7  Rx         0069  8  16 25 25 23 D6 00 00 AA 
   974)    324665.0  Rx         0247  8  40 08 CA 32 2D 2B 29 05 
   975)    324710.6  Rx         0033  8  90 00 2E 00 01 86 A0 01 
   976)    324765.0  Rx         0301  8  07 00 01 6F 00 BE 2D E3 
   977)    325662.8  Rx         0247  8  40 08 CA 32 2D 2B 29 05 
   978)    325711.2  Rx         0043  8  0B 00 00 00 00 00 00 01 
   979)    325765.2  Rx         0301  8  07 00 01 72 00 BE 2D E4 
   980)    326409.8  Rx         0069  8  16 25 25 23 D6 00 00 AA 
   981)    326663.6  Rx         0247  8  40 08 CA 32 2D 2B 29 05 
   982)    326765.4  Rx         0301  8  07 00 01 71 00 BE 2D E3 
   983)    327661.3  Rx         0247  8  40 08 CA 32 2D 2B 29 05 
   984)    327765.5  Rx         0301  8  07 00 01 6F 00 BE 2D E3 
   985)    328410.1  Rx         0069  8  16 25 25 23 D6 00 00 AA 
   986)    328662.0  Rx         0247  8  40 08 CA 32 2D 2B 29 05 
   987)    328713.0  Rx         0033  8  90 00 2E 00 01 86 A0 01 
   988)    328765.7  Rx         0301  8  07 00 01 6C 00 BE 2D E3 
   989)    329659.7  Rx         0247  8  40 08 CA 32 2D 2B 29 05 
   990)    329714.2  Rx         0043  8  0B 00 00 00 00 00 00 01 
   991)    329765.8  Rx         0301  8  07 00 01 6C 00 BE 2D E3 
   992)    330410.1  Rx         0069  8  16 25 25 23 D6 00 00 AA 
   993)    330660.5  Rx         0247  8  40 08 CA 32 2D 2B 29 05 
   994)    330765.0  Rx         0301  8  07 00 01 69 00 BE 2D E3 
   995)    331658.2  Rx         0247  8  40 08 CA 32 2D 2B 29 05 
   996)    331765.0  Rx         0301  8  07 00 01 67 00 BE 2D E3 
   997)    332450.9  Rx         0069  8  16 25 25 23 D8 00 00 AA 
   998)    332658.9  Rx         0247  8  40 08 CA 32 2D 2B 29 05 
   999)    332717.9  Rx         0033  8  90 00 2E 00 01 86 A0 01 
  1000)    332765.2  Rx         0301  8  07 00 01 64 00 BE 2D E3 
  1001)    333656.5  Rx         0247  8  40 08 CA 32 2D 2B 29 05 
  1002)    333719.1  Rx         0043  8  0B 00 00 00 00 00 00 01 
  1003)    333765.2  Rx         0301  8  07 00 01 66 00 BE 2D E3 
  1004)    334551.4  Rx         0069  8  16 24 25 23 D7 00 00 AA 
  1005)    334657.4  Rx         0247  8  40 08 CA 32 2D 2B 29 05 
  1006)    334765.3  Rx         0301  8  07 00 01 68 00 BE 2D E3 
  1007)    335654.9  Rx         0247  8  40 08 CA 32 2D 2B 29 05 
  1008)    335765.2  Rx         0301  8  07 00 01 6A 00 BE 2D E3 
  1009)    336651.3  Rx         0069  8  16 25 25 23 D7 00 00 AA 
  1010)    336655.7  Rx         0247  8  40 08 CA 32 2D 2B 29 05 
  1011)    336722.4  Rx         0033  8  90 00 2E 00 01 86 A0 01 
  1012)    336765.4  Rx         0301  8  07 00 01 6D 00 BE 2D E4 
  1013)    337653.4  Rx         0247  8  40 08 CA 32 2D 2B 29 05 
  1014)    337723.4  Rx         0043  8  0B 00 00 00 00 00 00 01 
  1015)    337765.4  Rx         0301  8  07 00 01 70 00 BE 2D E3 
  1016)    338654.2  Rx         0247  8  40 08 CA 32 2D 2B 29 05 
  1017)    338751.1  Rx         0069  8  16 25 25 23 D7 00 00 AA 
  1018)    338765.4  Rx         0301  8  07 00 01 71 00 BE 2D E3 
  1019)    339651.7  Rx         0247  8  40 08 CA 32 2D 2B 29 05 
  1020)    339765.4  Rx         0301  8  07 00 01 73 00 BE 2D E3 
  1021)    340652.5  Rx         0247  8  40 08 CA 32 2D 2B 29 05 
  1022)    340726.6  Rx         0033  8  90 00 2E 00 01 86 A0 01 
  1023)    340765.4  Rx         0301  8  07 00 01 74 00 BE 2D E4 
  1024)    340851.5  Rx         0069  8  16 25 25 23 D2 00 00 AA 
  1025)    341650.2  Rx         0247  8  40 08 CA 32 2D 2B 29 05 
  1026)    341727.8  Rx         0043  8  0C 00 00 00 00 00 00 01 
  1027)    341765.7  Rx         0301  8  07 00 01 72 00 BE 2D E3 
  1028)    342650.9  Rx         0247  8  40 08 CA 32 2D 2B 29 05 
  1029)    342765.6  Rx         0301  8  07 00 01 72 00 BE 2D E3 
  1030)    342951.6  Rx         0069  8  16 25 25 23 D5 00 00 AA 
  1031)    343648.6  Rx         0247  8  40 08 CA 32 2D 2B 29 05 
  1032)    343765.9  Rx         0301  8  07 00 01 70 00 BE 2D E4 
  1033)    344649.3  Rx         0247  8  40 08 CA 32 2D 2B 29 05 
  1034)    344729.9  Rx         0033  8  90 00 2E 00 01 86 A0 01 
  1035)    344764.9  Rx         0301  8  07 00 01 70 00 BE 2D E3 
  1036)    345051.8  Rx         0069  8  16 25 25 23 D5 00 00 AA 
  1037)    345647.0  Rx         0247  8  40 08 CA 32 2D 2B 29 05 
  1038)    345730.6  Rx         0043  8  0C 00 00 00 00 00 00 01 
  1039)    345765.1  Rx         0301  8  07 00 01 6F 00 BE 2D E3 
  1040)    346410.2  Rx         0069  8  16 25 25 23 D5 00 00 AA 
  1041)    346647.7  Rx         0247  8  40 08 CA 32 2D 2B 29 05 
  1042)    346765.2  Rx         0301  8  07 00 01 6F 00 BE 2D E3 
  1043)    347645.4  Rx         0247  8  40 08 CA 32 2D 2B 29 05 
  1044)    347765.2  Rx         0301  8  07 00 01 72 00 BE 2D E4 
  1045)    348410.3  Rx         0069  8  16 25 25 23 D5 00 00 AA 
  1046)    348646.2  Rx         0247  8  40 08 CA 32 2D 2B 29 05 
  1047)    348732.6  Rx         0033  8  90 00 2E 00 01 86 A0 01 
  1048)    348765.3  Rx         0301  8  07 00 01 76 00 BE 2D E3 
  1049)    349643.8  Rx         0247  8  40 08 CA 32 2D 2B 29 05 
  1050)    349733.3  Rx         0043  8  0C 00 00 00 00 00 00 01 
  1051)    349765.4  Rx         0301  8  07 00 01 79 00 BE 2D E3 
  1052)    350410.4  Rx         0069  8  16 25 25 23 DA 00 00 AA 
  1053)    350644.5  Rx         0247  8  40 08 CA 32 2D 2B 29 05 
  1054)    350765.3  Rx         0301  8  07 00 01 79 00 BE 2D E3 
  1055)    351642.2  Rx         0247  8  40 08 CA 32 2D 2B 29 05 
  1056)    351765.4  Rx         0301  8  07 00 01 78 00 BE 2D E4 
  1057)    352410.4  Rx         0069  8  16 25 25 23 D7 00 00 AA 
  1058)    352642.9  Rx         0247  8  40 08 CA 32 2D 2B 29 05 
  1059)    352735.0  Rx         0033  8  90 00 2E 00 01 86 A0 01 
  1060)    352765.5  Rx         0301  8  07 00 01 78 00 BE 2D E3 
  1061)    353640.7  Rx         0247  8  40 08 CA 32 2D 2B 29 05 
  1062)    353735.6  Rx         0043  8  0B 00 00 00 00 00 00 01 
  1063)    353765.6  Rx         0301  8  07 00 01 79 00 BE 2D E3 
  1064)    354410.4  Rx         0069  8  16 24 24 23 D3 00 00 AA 
  1065)    354641.3  Rx         0247  8  40 08 CA 32 2D 2B 29 05 
  1066)    354765.6  Rx         0301  8  07 00 01 78 00 BE 2D E3 
  1067)    355638.9  Rx         0247  8  40 08 CA 32 2D 2B 29 05 
  1068)    355765.6  Rx         0301  8  07 00 01 79 00 BE 2D E3 
  1069)    356410.4  Rx         0069  8  16 24 24 23 D3 00 00 AA 
  1070)    356639.7  Rx         0247  8  40 08 CA 32 2D 2B 29 05 
  1071)    356737.5  Rx         0033  8  90 00 2E 00 01 86 A0 01 
  1072)    356764.7  Rx         0301  8  07 00 01 78 00 BE 2D E3 
  1073)    357637.3  Rx         0247  8  40 08 CA 32 2D 2B 29 05 
  1074)    357738.3  Rx         0043  8  0C 00 00 00 00 00 00 01 
  1075)    357764.8  Rx         0301  8  07 00 01 78 00 BE 2D E3 
  1076)    358410.5  Rx         0069  8  16 25 25 23 D3 00 00 AA 
  1077)    358638.1  Rx         0247  8  40 08 CA 32 2D 2B 29 05 
  1078)    358764.9  Rx         0301  8  07 00 01 7A 00 BE 2D E4 
  1079)    359635.8  Rx         0247  8  40 08 CA 32 2D 2B 29 05 
  1080)    359764.8  Rx         0301  8  07 00 01 7B 00 BE 2D E3 
  1081)    360410.5  Rx         0069  8  16 25 25 23 D3 00 00 AA 
  1082)    360636.5  Rx         0247  8  40 08 CA 32 2D 2B 29 05 
  1083)    360740.4  Rx         0033  8  90 00 2E 00 01 86 A0 01 
  1084)    360765.0  Rx         0301  8  07 00 01 7B 00 BE 2D E3 
  1085)    361633.9  Rx         0247  8  40 08 CA 32 2D 2B 29 05 
  1086)    361740.9  Rx         0043  8  0B 00 00 00 00 00 00 01 
  1087)    361764.8  Rx         0301  8  07 00 01 7A 00 BE 2D E3 
  1088)    362410.3  Rx         0069  8  16 25 24 23 D6 00 00 AA 
  1089)    362634.8  Rx         0247  8  40 08 CA 32 2D 2B 29 05 
  1090)    362764.9  Rx         0301  8  07 00 01 78 00 BE 2D E3 
  1091)    363632.5  Rx         0247  8  40 08 CA 32 2D 2B 29 05 
  1092)    363765.0  Rx         0301  8  07 00 01 79 00 BE 2D E3 
  1093)    364410.5  Rx         0069  8  16 25 24 23 D6 00 00 AA 
  1094)    364633.3  Rx         0247  8  40 08 CA 32 2D 2B 29 05 
  1095)    364743.6  Rx         0033  8  90 00 2E 00 01 86 A0 01 
  1096)    364765.1  Rx         0301  8  07 00 01 7A 00 BE 2D E3 
  1097)    365630.9  Rx         0247  8  40 08 CA 32 2D 2B 29 05 
  1098)    365744.3  Rx         0043  8  0B 00 00 00 00 00 00 01 
  1099)    365765.1  Rx         0301  8  07 00 01 7B 00 BE 2D E3 
  1100)    366410.5  Rx         0069  8  16 25 25 23 D7 00 00 AA 
  1101)    366631.7  Rx         0247  8  40 08 CA 32 2D 2B 29 05 
  1102)    366765.2  Rx         0301  8  07 00 01 7D 00 BE 2D E3 
  1103)    367629.4  Rx         0247  8  40 08 CA 32 2D 2B 29 05 
  1104)    367765.3  Rx         0301  8  07 00 01 7D 00 BE 2D E3 
  1105)    368410.6  Rx         0069  8  16 25 25 23 D7 00 00 AA 
  1106)    368630.2  Rx         0247  8  40 08 CA 32 2D 2B 29 05 
  1107)    368747.2  Rx         0033  8  90 00 2E 00 01 86 A0 01 
  1108)    368765.5  Rx         0301  8  07 00 01 7D 00 BE 2D E3 
  1109)    369627.8  Rx         0247  8  40 08 CA 32 2D 2B 29 05 
  1110)    369748.0  Rx         0043  8  0B 00 00 00 00 00 00 01 
  1111)    369765.6  Rx         0301  8  07 00 01 7F 00 BE 2D E3 
  1112)    370410.6  Rx         0069  8  16 25 25 23 D7 00 00 AA 
  1113)    370628.5  Rx         0247  8  40 08 CA 32 2D 2B 29 05 
  1114)    370765.4  Rx         0301  8  07 00 01 80 00 BE 2D E3 
  1115)    371625.8  Rx         0247  8  40 08 CA 32 2D 2B 29 05 
  1116)    371765.0  Rx         0301  8  07 00 01 81 00 BE 2D E4 
  1117)    372409.9  Rx         0069  8  16 25 25 23 D8 00 00 AA 
  1118)    372626.1  Rx         0247  8  40 08 CA 32 2D 2B 29 05 
  1119)    372749.2  Rx         0033  8  90 00 2E 00 01 86 A0 01 
  1120)    372763.8  Rx         0301  8  07 00 01 81 00 BE 2D E3 
  1121)    373623.8  Rx         0247  8  40 08 CA 32 2D 2B 29 05 
  1122)    373750.2  Rx         0043  8  0C 00 00 00 00 00 00 01 
  1123)    373764.0  Rx         0301  8  07 00 01 80 00 BE 2D E3 
  1124)    374453.2  Rx         0069  8  16 25 25 23 D8 00 00 AA 
  1125)    374624.6  Rx         0247  8  40 08 CA 32 2D 2B 29 05 
  1126)    374764.1  Rx         0301  8  07 00 01 80 00 BE 2D E3 
  1127)    375622.4  Rx         0247  8  40 08 CA 32 2D 2B 29 05 
  1128)    375764.1  Rx         0301  8  07 00 01 80 00 BE 2D E3 
  1129)    376553.5  Rx         0069  8  16 25 25 23 D6 00 00 AA 
  1130)    376623.2  Rx         0247  8  40 08 CA 32 2D 2B 29 05 
  1131)    376752.7  Rx         0033  8  90 00 2E 00 01 86 A0 01 
  1132)    376764.1  Rx         0301  8  07 00 01 81 00 BE 2D E3 
  1133)    377620.7  Rx         0247  8  40 08 CA 32 2D 2B 29 05 
  1134)    377753.9  Rx         0043  8  0C 00 00 00 00 00 00 01 
  1135)    377764.3  Rx         0301  8  07 00 01 81 00 BE 2D E3 
  1136)    378621.0  Rx         0247  8  40 08 CA 32 2D 2B 29 05 
  1137)    378653.1  Rx         0069  8  16 25 25 23 D2 00 00 AA 
  1138)    378763.8  Rx         0301  8  07 00 01 80 00 BE 2D E4 
  1139)    379618.6  Rx         0247  8  40 08 CA 32 2D 2B 29 05 
  1140)    379763.8  Rx         0301  8  07 00 01 7E 00 BE 2D E3 
  1141)    380619.5  Rx         0247  8  40 08 CA 32 2D 2B 29 05 
  1142)    380753.4  Rx         0069  8  16 25 25 23 D6 00 00 AA 
  1143)    380757.0  Rx         0033  8  90 00 2E 00 01 86 A0 01 
  1144)    380764.0  Rx         0301  8  07 00 01 7E 00 BE 2D E3 
  1145)    381617.1  Rx         0247  8  40 08 CA 32 2D 2B 29 05 
  1146)    381757.7  Rx         0043  8  0C 00 00 00 00 00 00 01 
  1147)    381764.2  Rx         0301  8  07 00 01 7F 00 BE 2D E3 
  1148)    382618.0  Rx         0247  8  40 08 CA 32 2D 2B 29 05 
  1149)    382764.3  Rx         0301  8  07 00 01 7F 00 BE 2D E3 
  1150)    382853.8  Rx         0069  8  16 25 25 23 D8 00 00 AA 
  1151)    383615.7  Rx         0247  8  40 08 CA 32 2D 2B 29 05 
  1152)    383764.4  Rx         0301  8  07 00 01 7F 00 BE 2D E3 
  1153)    384616.6  Rx         0247  8  40 08 CA 32 2D 2B 29 05 
  1154)    384759.6  Rx         0033  8  90 00 2E 00 01 86 A0 01 
  1155)    384764.5  Rx         0301  8  07 00 01 83 00 BE 2D E3 
  1156)    384954.0  Rx         0069  8  16 25 25 24 D8 00 00 AA 
  1157)    385614.2  Rx         0247  8  40 08 CA 32 2D 2B 29 05 
  1158)    385760.2  Rx         0043  8  0B 00 00 00 00 00 00 01 
  1159)    385764.8  Rx         0301  8  07 00 01 84 00 BE 2D E4 
  1160)    386615.1  Rx         0247  8  40 08 CA 32 2D 2B 29 05 
  1161)    386764.8  Rx         0301  8  07 00 01 85 00 BE 2D E3 
  1162)    387054.3  Rx         0069  8  16 25 25 22 D3 00 00 AA 
  1163)    387612.7  Rx         0247  8  40 08 CA 32 2D 2B 29 05 
  1164)    387764.9  Rx         0301  8  07 00 01 86 00 BE 2D E3 
  1165)    388410.3  Rx         0069  8  16 25 25 22 D3 00 00 AA 
  1166)    388613.6  Rx         0247  8  40 08 CA 32 2D 2B 29 05 
  1167)    388762.4  Rx         0033  8  90 00 2E 00 01 86 A0 01 
  1168)    388764.0  Rx         0301  8  07 00 01 86 00 BE 2D E4 
  1169)    389611.2  Rx         0247  8  40 08 CA 32 2D 2B 29 05 
  1170)    389763.5  Rx         0043  8  0B 00 00 00 00 00 00 01 
  1171)    389764.1  Rx         0301  8  07 00 01 85 00 BE 2D E3 
  1172)    390410.4  Rx         0069  8  16 25 25 23 D6 00 00 AA 
  1173)    390612.0  Rx         0247  8  40 08 CA 32 2D 2B 29 05 
  1174)    390764.2  Rx         0301  8  07 00 01 85 00 BE 2D E3 
  1175)    391609.7  Rx         0247  8  40 08 CA 32 2D 2B 29 05 
  1176)    391764.3  Rx         0301  8  07 00 01 85 00 BE 2D E3 
  1177)    392410.5  Rx         0069  8  16 25 25 23 DA 00 00 AA 
  1178)    392610.6  Rx         0247  8  40 08 CA 32 2D 2B 29 05 
  1179)    392764.5  Rx         0301  8  07 00 01 82 00 BE 2D E3 
  1180)    392767.7  Rx         0033  8  90 00 2E 00 01 86 A0 01 
  1181)    393608.3  Rx         0247  8  40 08 CA 32 2D 2B 29 05 
  1182)    393764.7  Rx         0301  8  07 00 01 85 00 BE 2D E3 
  1183)    393769.3  Rx         0043  8  0B 00 00 00 00 00 00 01 
  1184)    394410.7  Rx         0069  8  16 25 25 23 D6 00 00 AA 
  1185)    394609.1  Rx         0247  8  40 08 CA 32 2D 2B 29 05 
  1186)    394764.6  Rx         0301  8  07 00 01 86 00 BE 2D E3 
  1187)    395606.6  Rx         0247  8  40 08 CA 32 2D 2B 29 05 
  1188)    395764.4  Rx         0301  8  07 00 01 87 00 BE 2D E3 
  1189)    396410.6  Rx         0069  8  16 25 25 23 D6 00 00 AA 
  1190)    396607.4  Rx         0247  8  40 08 CA 32 2D 2B 29 05 
  1191)    396764.6  Rx         0301  8  07 00 01 85 00 BE 2D E3 
  1192)    396773.3  Rx         0033  8  90 00 2F 00 01 86 A0 01 
  1193)    397604.9  Rx         0247  8  40 08 CA 32 2D 2B 29 05 
  1194)    397764.6  Rx         0301  8  07 00 01 81 00 BE 2D E4 
  1195)    397774.5  Rx         0043  8  0B 00 00 00 00 00 00 01 
  1196)    398410.5  Rx         0069  8  16 25 25 23 D6 00 00 AA 
  1197)    398605.7  Rx         0247  8  40 08 CA 32 2D 2B 29 05 
  1198)    398764.8  Rx         0301  8  07 00 01 7E 00 BE 2D E3 
  1199)    399603.4  Rx         0247  8  40 08 CA 32 2D 2B 29 05 
  1200)    399764.8  Rx         0301  8  07 00 01 7F 00 BE 2D E3 
  1201)    400410.7  Rx         0069  8  16 25 24 23 DB 01 00 AA 
  1202)    400604.3  Rx         0247  8  40 08 CA 32 2D 2B 29 05 
  1203)    400764.9  Rx         0301  8  07 00 01 82 00 BE 2D E3 
  1204)    400778.3  Rx         0033  8  90 00 2F 00 01 86 A0 01 
  1205)    401601.9  Rx         0247  8  40 08 CA 32 2D 2B 29 05 
  1206)    401765.0  Rx         0301  8  07 00 01 89 00 BE 2D E3 
  1207)    401779.6  Rx         0043  8  0B 00 00 00 00 00 00 01 
  1208)    402410.9  Rx         0069  8  16 25 24 23 DB 01 00 AA 
  1209)    402602.8  Rx         0247  8  40 08 CA 32 2D 2B 29 05 
  1210)    402765.3  Rx         0301  8  07 00 01 8D 00 BE 2D E3 
  1211)    403600.4  Rx         0247  8  40 08 CA 32 2D 2B 29 05 
  1212)    403765.3  Rx         0301  8  07 00 01 90 00 BE 2D E3 
  1213)    404410.9  Rx         0069  8  16 25 24 24 DC 00 00 AA 
  1214)    404601.3  Rx         0247  8  40 08 CA 32 2D 2B 29 05 
  1215)    404765.4  Rx         0301  8  07 00 01 92 00 BE 2D E3 
  1216)    404783.2  Rx         0033  8  90 00 2E 00 01 86 A0 01 
  1217)    405599.0  Rx         0247  8  40 08 CA 32 2D 2B 29 05 
  1218)    405765.5  Rx         0301  8  07 00 01 92 00 BE 2D E3 
  1219)    405784.4  Rx         0043  8  0C 00 00 00 00 00 00 01 
  1220)    406411.0  Rx         0069  8  16 25 24 23 D7 00 00 AA 
  1221)    406599.8  Rx         0247  8  40 08 CA 32 2D 2B 29 05 
  1222)    406764.7  Rx         0301  8  07 00 01 8F 00 BE 2D E3 
  1223)    407597.5  Rx         0247  8  40 08 CA 32 2D 2B 29 05 
  1224)    407764.7  Rx         0301  8  07 00 01 8B 00 BE 2D E3 
  1225)    408411.2  Rx         0069  8  16 25 25 23 D7 00 00 AA 
  1226)    408574.0  Rx         0247  8  40 08 CA 32 2D 2B 29 05 
  1227)    408650.5  Tx         0043  8  FF 00 00 00 00 00 00 01 
  1228)    408764.9  Rx         0301  8  07 00 01 87 00 BE 2D E3 
  1229)    408788.2  Rx         0033  8  90 00 2E 00 01 86 A0 01 
  1230)    409150.6  Tx         0043  8  FF 00 00 00 00 00 00 01 
  1231)    409595.7  Rx         0247  8  40 08 CA 32 2D 2B 29 05 
  1232)    409652.2  Tx         0043  8  FF 00 00 00 00 00 00 01 
  1233)    409764.9  Rx         0301  8  07 00 01 85 00 BE 2D E3 
  1234)    409789.4  Rx         0043  8  0C 00 00 00 00 00 00 01 
  1235)    410150.5  Tx         0043  8  FF 00 00 00 00 00 00 01 
  1236)    410411.0  Rx         0069  8  16 25 25 23 D7 00 00 AA 
  1237)    410596.5  Rx         0247  8  40 08 CA 32 2D 2B 29 05 
  1238)    410650.9  Tx         0043  8  FF 00 00 00 00 00 00 01 
  1239)    410765.2  Rx         0301  8  07 00 01 87 00 BE 2D E3 
  1240)    411150.8  Tx         0043  8  FF 00 00 00 00 00 00 01 
  1241)    411593.7  Rx         0247  8  40 08 CA 32 2D 2B 29 05 
  1242)    411652.1  Tx         0043  8  FF 00 00 00 00 00 00 01 
  1243)    411764.9  Rx         0301  8  07 00 01 89 00 BE 2D E3 
  1244)    412151.1  Tx         0043  8  FF 00 00 00 00 00 00 01 
  1245)    412410.3  Rx         0069  8  16 25 25 23 D7 00 00 AA 
  1246)    412594.0  Rx         0247  8  40 08 CA 32 2D 2B 29 05 
  1247)    412652.1  Tx         0043  8  FF 00 00 00 00 00 00 01 
  1248)    412763.7  Rx         0301  8  07 00 01 8B 00 BE 2D E3 
  1249)    412792.1  Rx         0033  8  90 00 2E 00 01 86 A0 01 
  1250)    413151.4  Tx         0043  8  FF 00 00 00 00 00 00 01 
  1251)    413591.7  Rx         0247  8  40 08 CA 32 2D 2B 29 05 
  1252)    413651.3  Tx         0043  8  FF 00 00 00 00 00 00 01 
  1253)    413764.0  Rx         0301  8  07 00 01 8E 00 BE 2D E4 
  1254)    413793.6  Rx         0043  8  0B 00 00 00 00 00 00 01 
  1255)    414151.9  Tx         0043  8  FF 00 00 00 00 00 00 01 
  1256)    414410.4  Rx         0069  8  16 25 25 23 D7 00 00 AA 
  1257)    414592.6  Rx         0247  8  40 08 CA 32 2D 2B 29 05 
  1258)    414651.3  Tx         0043  8  FF 00 00 00 00 00 00 01 
  1259)    414764.4  Rx         0301  8  07 00 01 90 00 BE 2D E3 
  1260)    415151.3  Tx         0043  8  FF 00 00 00 00 00 00 01 
  1261)    415590.3  Rx         0247  8  40 08 CA 32 2D 2B 29 05 
  1262)    415652.2  Tx         0043  8  FF 00 00 00 00 00 00 01 
  1263)    415764.6  Rx         0301  8  07 00 01 90 00 BE 2D E3 
  1264)    416152.3  Tx         0043  8  FF 00 00 00 00 00 00 01 
  1265)    416455.9  Rx         0069  8  16 25 25 23 D7 00 00 AA 
  1266)    416591.1  Rx         0247  8  40 08 CA 32 2D 2B 29 05 
  1267)    416652.3  Tx         0043  8  FF 00 00 00 00 00 00 01 
  1268)    416763.8  Rx         0301  8  07 00 01 92 00 BE 2D E3 
  1269)    416797.5  Rx         0033  8  90 00 2E 00 01 86 A0 01 
  1270)    417150.7  Tx         0043  8  FF 00 00 00 00 00 00 01 
  1271)    417588.7  Rx         0247  8  40 08 CA 32 2D 2B 29 05 
  1272)    417652.1  Tx         0043  8  FF 00 00 00 00 00 00 01 
  1273)    417764.1  Rx         0301  8  07 00 01 91 00 BE 2D E3 
  1274)    417799.0  Rx         0043  8  0B 00 00 00 00 00 00 01 
  1275)    418152.2  Tx         0043  8  FF 00 00 00 00 00 00 01 
  1276)    418556.4  Rx         0069  8  16 25 25 23 D7 00 00 AA 
  1277)    418589.6  Rx         0247  8  40 08 CA 32 2D 2B 29 05 
  1278)    418650.6  Tx         0043  8  FF 00 00 00 00 00 00 01 
  1279)    418764.5  Rx         0301  8  07 00 01 88 00 BE 2D E3 
  1280)    419150.8  Tx         0043  8  FF 00 00 00 00 00 00 01 
  1281)    419587.2  Rx         0247  8  40 08 CA 32 2D 2B 29 05 
  1282)    419652.1  Tx         0043  8  FF 00 00 00 00 00 00 01 
  1283)    419764.7  Rx         0301  8  07 00 01 84 00 BE 2D E3 
  1284)    420151.4  Tx         0043  8  FF 00 00 00 00 00 00 01 
  1285)    420588.0  Rx         0247  8  40 08 CA 32 2D 2B 29 05 
  1286)    420651.0  Tx         0043  8  FF 00 00 00 00 00 00 01 
  1287)    420656.6  Rx         0069  8  16 25 24 23 D6 00 00 AA 
  1288)    420764.9  Rx         0301  8  07 00 01 7C 00 BE 2D E3 
  1289)    420803.0  Rx         0033  8  90 00 2E 00 01 86 A0 01 
  1290)    421150.9  Tx         0043  8  FF 00 00 00 00 00 00 01 
  1291)    421585.7  Rx         0247  8  40 08 CA 32 2D 2B 29 05 
  1292)    421651.6  Tx         0043  8  FF 00 00 00 00 00 00 01 
  1293)    421764.2  Rx         0301  8  07 00 01 79 00 BE 2D E3 
  1294)    421804.4  Rx         0043  8  0C 00 00 00 00 00 00 01 
  1295)    422150.6  Tx         0043  8  FF 00 00 00 00 00 00 01 
  1296)    422586.5  Rx         0247  8  40 08 CA 32 2D 2B 29 05 
  1297)    422651.5  Tx         0043  8  FF 00 00 00 00 00 00 01 
  1298)    422756.8  Rx         0069  8  16 25 24 23 D6 00 00 AA 
  1299)    422764.6  Rx         0301  8  07 00 01 79 00 BE 2D E3 
  1300)    423151.2  Tx         0043  8  FF 00 00 00 00 00 00 01 
  1301)    423584.2  Rx         0247  8  40 08 CA 32 2D 2B 29 05 
  1302)    423651.1  Tx         0043  8  FF 00 00 00 00 00 00 01 
  1303)    423764.7  Rx         0301  8  07 00 01 7F 00 BE 2D E4 
  1304)    424151.0  Tx         0043  8  FF 00 00 00 00 00 00 01 
  1305)    424585.0  Rx         0247  8  40 08 CA 32 2D 2B 29 05 
  1306)    424652.2  Tx         0043  8  FF 00 00 00 00 00 00 01 
  1307)    424764.9  Rx         0301  8  07 00 01 82 00 BE 2D E3 
  1308)    424808.7  Rx         0033  8  90 00 2E 00 01 86 A0 01 
  1309)    424857.0  Rx         0069  8  16 25 24 23 D8 00 00 AA 
  1310)    425151.8  Tx         0043  8  FF 00 00 00 00 00 00 01 
  1311)    425582.8  Rx         0247  8  40 08 CA 32 2D 2B 29 05 
  1312)    425651.9  Tx         0043  8  FF 00 00 00 00 00 00 01 
  1313)    425764.4  Rx         0301  8  07 00 01 85 00 BE 2D E3 
  1314)    425810.2  Rx         0043  8  0B 00 00 00 00 00 00 01 
  1315)    426150.6  Tx         0043  8  FF 00 00 00 00 00 00 01 
  1316)    426583.5  Rx         0247  8  40 08 CA 32 2D 2B 29 05 
  1317)    426652.1  Tx         0043  8  FF 00 00 00 00 00 00 01 
  1318)    426764.6  Rx         0301  8  07 00 01 87 00 BE 2D E3 
  1319)    426957.4  Rx         0069  8  16 25 24 23 D8 00 00 AA 
  1320)    427150.5  Tx         0043  8  FF 00 00 00 00 00 00 01 
  1321)    427581.3  Rx         0247  8  40 08 CA 32 2D 2B 29 05 
  1322)    427652.0  Tx         0043  8  FF 00 00 00 00 00 00 01 
  1323)    427765.0  Rx         0301  8  07 00 01 86 00 BE 2D E3 
  1324)    428151.4  Tx         0043  8  FF 00 00 00 00 00 00 01 
  1325)    428582.2  Rx         0247  8  40 08 CA 32 2D 2B 29 05 
  1326)    428652.4  Tx         0043  8  FF 00 00 00 00 00 00 01 
  1327)    428765.3  Rx         0301  8  07 00 01 83 00 BE 2D E3 
  1328)    428814.5  Rx         0033  8  90 00 2E 00 01 86 A0 01 
  1329)    429057.8  Rx         0069  8  16 25 24 23 D8 00 00 AA 
  1330)    429150.5  Tx         0043  8  FF 00 00 00 00 00 00 01 
  1331)    429579.8  Rx         0247  8  40 08 CA 32 2D 2B 29 05 
  1332)    429651.1  Tx         0043  8  FF 00 00 00 00 00 00 01 
  1333)    429764.7  Rx         0301  8  07 00 01 7E 00 BE 2D E3 
  1334)    429816.0  Rx         0043  8  0C 00 00 00 00 00 00 01 
  1335)    430151.9  Tx         0043  8  FF 00 00 00 00 00 00 01 
  1336)    430411.4  Rx         0069  8  16 25 24 23 D8 00 00 AA 
  1337)    430580.6  Rx         0247  8  40 08 CA 32 2D 2B 29 05 
  1338)    430650.8  Tx         0043  8  FF 00 00 00 00 00 00 01 
  1339)    430765.0  Rx         0301  8  07 00 01 7F 00 BE 2D E3 
  1340)    431150.5  Tx         0043  8  FF 00 00 00 00 00 00 01 
  1341)    431578.3  Rx         0247  8  40 08 CA 32 2D 2B 29 05 
  1342)    431651.5  Tx         0043  8  FF 00 00 00 00 00 00 01 
  1343)    431765.2  Rx         0301  8  07 00 01 80 00 BE 2D E3 
  1344)    432150.8  Tx         0043  8  FF 00 00 00 00 00 00 01 
  1345)    432411.6  Rx         0069  8  16 25 24 23 D8 00 00 AA 
  1346)    432579.1  Rx         0247  8  40 08 CA 32 2D 2B 29 05 
  1347)    432651.1  Tx         0043  8  FF 00 00 00 00 00 00 01 
  1348)    432764.4  Rx         0301  8  07 00 01 80 00 BE 2D E3 
  1349)    432819.9  Rx         0033  8  90 00 2E 00 01 86 A0 01 
  1350)    433150.5  Tx         0043  8  FF 00 00 00 00 00 00 01 
  1351)    433576.7  Rx         0247  8  40 08 CA 32 2D 2B 29 05 
  1352)    433651.6  Tx         0043  8  FF 00 00 00 00 00 00 01 
  1353)    433764.7  Rx         0301  8  07 00 01 7F 00 BE 2D E3 
  1354)    433821.2  Rx         0043  8  0B 00 00 00 00 00 00 01 
  1355)    434151.4  Tx         0043  8  FF 00 00 00 00 00 00 01 
  1356)    434411.5  Rx         0069  8  16 25 24 23 D8 00 00 AA 
  1357)    434577.5  Rx         0247  8  40 08 CA 32 2D 2B 29 05 
  1358)    434651.3  Tx         0043  8  FF 00 00 00 00 00 00 01 
  1359)    434765.0  Rx         0301  8  07 00 01 7D 00 BE 2D E3 
  1360)    435151.3  Tx         0043  8  FF 00 00 00 00 00 00 01 
  1361)    435575.1  Rx         0247  8  40 08 CA 32 2D 2B 29 05 
  1362)    435651.6  Tx         0043  8  FF 00 00 00 00 00 00 01 
  1363)    435765.2  Rx         0301  8  07 00 01 7D 00 BE 2D E3 
  1364)    436151.5  Tx         0043  8  FF 00 00 00 00 00 00 01 
  1365)    436411.5  Rx         0069  8  16 25 24 22 D2 00 00 AA 
  1366)    436575.8  Rx         0247  8  40 08 CA 32 2D 2B 29 05 
  1367)    436650.5  Tx         0043  8  FF 00 00 00 00 00 00 01 
  1368)    436765.4  Rx         0301  8  07 00 01 7E 00 BE 2D E3 
  1369)    436825.5  Rx         0033  8  90 00 2E 00 01 86 A0 01 
  1370)    437151.3  Tx         0043  8  FF 00 00 00 00 00 00 01 
  1371)    437573.5  Rx         0247  8  40 08 CA 32 2D 2B 29 05 
  1372)    437651.2  Tx         0043  8  FF 00 00 00 00 00 00 01 
  1373)    437764.6  Rx         0301  8  07 00 01 7C 00 BE 2D E3 
  1374)    437827.0  Rx         0043  8  0B 00 00 00 00 00 00 01 
  1375)    438152.1  Tx         0043  8  FF 00 00 00 00 00 00 01 
  1376)    438411.6  Rx         0069  8  16 25 24 23 D4 00 00 AA 
  1377)    438574.3  Rx         0247  8  40 08 CA 32 2D 2B 29 05 
  1378)    438717.9  Tx         0043  8  FF 00 00 00 00 00 00 01 
  1379)    438765.0  Rx         0301  8  07 00 01 7B 00 BE 2D E3 
  1380)    439217.0  Tx         0043  8  FF 00 00 00 00 00 00 01 
  1381)    439572.0  Rx         0247  8  40 08 CA 32 2D 2B 29 05 
  1382)    439717.3  Tx         0043  8  FF 00 00 00 00 00 00 01 
  1383)    439765.2  Rx         0301  8  07 00 01 7C 00 BE 2D E3 
  1384)    440218.0  Tx         0043  8  FF 00 00 00 00 00 00 01 
  1385)    440411.7  Rx         0069  8  16 25 24 23 D4 00 00 AA 
  1386)    440572.8  Rx         0247  8  40 08 CA 32 2D 2B 29 05 
  1387)    440716.5  Tx         0043  8  FF 00 00 00 00 00 00 01 
  1388)    440765.5  Rx         0301  8  07 00 01 7C 00 BE 2D E3 
  1389)    440831.3  Rx         0033  8  90 00 2E 00 01 86 A0 01 
  1390)    441217.4  Tx         0043  8  FF 00 00 00 00 00 00 01 
  1391)    441570.3  Rx         0247  8  40 08 CA 32 2D 2B 29 05 
  1392)    441716.6  Tx         0043  8  FF 00 00 00 00 00 00 01 
  1393)    441764.5  Rx         0301  8  07 00 01 7B 00 BE 2D E3 
  1394)    441832.5  Rx         0043  8  0C 00 00 00 00 00 00 01 
  1395)    442216.5  Tx         0043  8  FF 00 00 00 00 00 00 01 
  1396)    442411.7  Rx         0069  8  16 25 24 23 D4 00 00 AA 
  1397)    442571.0  Rx         0247  8  40 08 CA 32 2D 2B 29 05 
  1398)    442716.6  Tx         0043  8  FF 00 00 00 00 00 00 01 
  1399)    442764.8  Rx         0301  8  07 00 01 7D 00 BE 2D E3 
  1400)    443217.1  Tx         0043  8  FF 00 00 00 00 00 00 01 
  1401)    443568.8  Rx         0247  8  40 08 CA 32 2D 2B 29 05 
  1402)    443716.7  Tx         0043  8  FF 00 00 00 00 00 00 01 
  1403)    443765.0  Rx         0301  8  07 00 01 7F 00 BE 2D E3 
  1404)    444217.2  Tx         0043  8  FF 00 00 00 00 00 00 01 
  1405)    444411.6  Rx         0069  8  16 25 24 23 D4 00 00 AA 
  1406)    444569.4  Rx         0247  8  40 08 CA 32 2D 2B 29 05 
  1407)    444716.7  Tx         0043  8  FF 00 00 00 00 00 00 01 
  1408)    444765.1  Rx         0301  8  07 00 01 82 00 BE 2D E3 
  1409)    444836.6  Rx         0033  8  90 00 2E 00 01 86 A0 01 
  1410)    445217.9  Tx         0043  8  FF 00 00 00 00 00 00 01 
  1411)    445566.9  Rx         0247  8  40 08 CA 32 2D 2B 29 05 
  1412)    445716.9  Tx         0043  8  FF 00 00 00 00 00 00 01 
  1413)    445764.2  Rx         0301  8  07 00 01 85 00 BE 2D E3 
  1414)    445837.9  Rx         0043  8  0B 00 00 00 00 00 00 01 
  1415)    446411.3  Rx         0069  8  16 25 24 23 D4 00 00 AA 
  1416)    446567.5  Rx         0247  8  40 08 CA 32 2D 2B 29 05 
  1417)    446764.0  Rx         0301  8  07 00 01 89 00 BE 2D E3 
  1418)    447565.0  Rx         0247  8  40 08 CA 32 2D 2B 29 05 
  1419)    447764.0  Rx         0301  8  07 00 01 8E 00 BE 2D E3 
  1420)    448411.3  Rx         0069  8  16 25 24 23 D6 00 00 AA 
  1421)    448565.9  Rx         0247  8  40 08 CA 32 2D 2B 29 05 
  1422)    448764.1  Rx         0301  8  07 00 01 92 00 BE 2D E3 
  1423)    448841.4  Rx         0033  8  90 00 2E 00 01 86 A0 01 
  1424)    449563.5  Rx         0247  8  40 08 CA 32 2D 2B 29 05 
  1425)    449764.1  Rx         0301  8  07 00 01 92 00 BE 2D E3 
  1426)    449842.7  Rx         0043  8  0C 00 00 00 00 00 00 01 
  1427)    450411.4  Rx         0069  8  16 25 24 23 D6 00 00 AA 
  1428)    450564.3  Rx         0247  8  40 08 CA 32 2D 2B 29 05 
  1429)    450764.2  Rx         0301  8  07 00 01 93 00 BE 2D E3 
  1430)    451561.8  Rx         0247  8  40 08 CA 32 2D 2B 29 05 
  1431)    451764.2  Rx         0301  8  07 00 01 91 00 BE 2D E4 
  1432)    452411.3  Rx         0069  8  16 25 24 23 D6 01 00 AA 
  1433)    452562.7  Rx         0247  8  40 08 CA 32 2D 2B 29 05 
  1434)    452764.2  Rx         0301  8  07 00 01 91 00 BE 2D E3 
  1435)    452846.1  Rx         0033  8  90 00 2E 00 01 86 A0 01 
  1436)    453560.1  Rx         0247  8  40 08 CA 32 2D 2B 29 05 
  1437)    453764.2  Rx         0301  8  07 00 01 8E 00 BE 2D E3 
  1438)    453847.3  Rx         0043  8  0B 00 00 00 00 00 00 01 
  1439)    454411.2  Rx         0069  8  16 25 24 23 DA 00 00 AA 
  1440)    454560.9  Rx         0247  8  40 08 CA 32 2D 2B 29 05 
  1441)    454764.3  Rx         0301  8  07 00 01 8B 00 BE 2D E3 
  1442)    455558.6  Rx         0247  8  40 08 CA 32 2D 2B 29 05 
  1443)    455764.4  Rx         0301  8  07 00 01 88 00 BE 2D E3 
  1444)    456411.4  Rx         0069  8  16 25 24 23 DA 00 00 AA 
  1445)    456559.4  Rx         0247  8  40 08 CA 32 2D 2B 29 05 
  1446)    456764.6  Rx         0301  8  07 00 01 87 00 BE 2D E3 
  1447)    456851.4  Rx         0033  8  90 00 2E 00 01 86 A0 01 
  1448)    457557.0  Rx         0247  8  40 08 CA 32 2D 2B 29 05 
  1449)    457764.7  Rx         0301  8  07 00 01 89 00 BE 2D E3 
  1450)    457853.0  Rx         0043  8  0B 00 00 00 00 00 00 01 
  1451)    458459.9  Rx         0069  8  16 25 24 23 D6 00 00 AA 
  1452)    458557.9  Rx         0247  8  40 08 CA 32 2D 2B 29 05 
  1453)    458764.8  Rx         0301  8  07 00 01 8B 00 BE 2D E3 
  1454)    459555.5  Rx         0247  8  40 08 CA 32 2D 2B 29 05 
  1455)    459764.8  Rx         0301  8  07 00 01 8B 00 BE 2D E3 
  1456)    460556.4  Rx         0247  8  40 08 CA 32 2D 2B 29 05 
  1457)    460560.2  Rx         0069  8  16 25 24 24 D4 00 00 AA 
  1458)    460764.9  Rx         0301  8  07 00 01 8E 00 BE 2D E3 
  1459)    460857.3  Rx         0033  8  90 00 2F 00 01 86 A0 01 
  1460)    461554.1  Rx         0247  8  40 08 CA 32 2D 2B 29 05 
  1461)    461765.1  Rx         0301  8  07 00 01 8F 00 BE 2D E3 
  1462)    461858.6  Rx         0043  8  0C 00 00 00 00 00 00 01 
  1463)    462554.9  Rx         0247  8  40 08 CA 32 2D 2B 29 05 
  1464)    462660.5  Rx         0069  8  16 25 24 24 D4 00 00 AA 
  1465)    462764.3  Rx         0301  8  07 00 01 90 00 BE 2D E3 
  1466)    463552.6  Rx         0247  8  40 08 CA 32 2D 2B 29 05 
  1467)    463764.3  Rx         0301  8  07 00 01 8F 00 BE 2D E3 
  1468)    464553.3  Rx         0247  8  40 08 CA 32 2D 2B 29 05 
  1469)    464760.6  Rx         0069  8  16 25 24 23 D8 00 00 AA 
  1470)    464764.3  Rx         0301  8  07 00 01 8D 00 BE 2D E4 
  1471)    464862.9  Rx         0033  8  90 00 2F 00 01 86 A0 01 
  1472)    465551.0  Rx         0247  8  40 08 CA 32 2D 2B 29 05 
  1473)    465764.4  Rx         0301  8  07 00 01 8B 00 BE 2D E4 
  1474)    465864.3  Rx         0043  8  0B 00 00 00 00 00 00 01 
  1475)    466551.7  Rx         0247  8  40 08 CA 32 2D 2B 29 05 
  1476)    466764.6  Rx         0301  8  07 00 01 88 00 BE 2D E3 
  1477)    466860.7  Rx         0069  8  16 25 24 23 D8 00 00 AA 
  1478)    467549.4  Rx         0247  8  40 08 CA 32 2D 2B 29 05 
  1479)    467764.7  Rx         0301  8  07 00 01 87 00 BE 2D E3 
  1480)    468550.2  Rx         0247  8  40 08 CA 32 2D 2B 29 05 
  1481)    468764.8  Rx         0301  8  07 00 01 87 00 BE 2D E3 
  1482)    468867.8  Rx         0033  8  90 00 2F 00 01 86 A0 01 
  1483)    468960.6  Rx         0069  8  16 25 24 23 D8 00 00 AA 
  1484)    469547.9  Rx         0247  8  40 08 CA 32 2D 2B 29 05 
  1485)    469765.0  Rx         0301  8  07 00 01 86 00 BE 2D E4 
  1486)    469869.0  Rx         0043  8  0C 00 00 00 00 00 00 01 
  1487)    470548.7  Rx         0247  8  40 08 CA 32 2D 2B 29 05 
  1488)    470765.2  Rx         0301  8  07 00 01 86 00 BE 2D E3 
  1489)    471061.3  Rx         0069  8  16 25 24 23 DA 00 00 AA 
  1490)    471546.3  Rx         0247  8  40 08 CA 32 2D 2B 29 05 
  1491)    471765.2  Rx         0301  8  07 00 01 87 00 BE 2D E3 
  1492)    472412.1  Rx         0069  8  16 25 24 23 DA 00 00 AA 
  1493)    472547.1  Rx         0247  8  40 08 CA 32 2D 2B 29 05 
  1494)    472764.3  Rx         0301  8  07 00 01 87 00 BE 2D E3 
  1495)    472872.8  Rx         0033  8  90 00 2F 00 01 86 A0 01 
  1496)    473544.7  Rx         0247  8  40 08 CA 32 2D 2B 29 05 
  1497)    473764.3  Rx         0301  8  07 00 01 8C 00 BE 2D E3 
  1498)    473874.1  Rx         0043  8  0B 00 00 00 00 00 00 01 
  1499)    474412.0  Rx         0069  8  16 25 24 23 D8 00 00 AA 
  1500)    474545.6  Rx         0247  8  40 08 CA 32 2D 2B 29 05 
  1501)    474764.5  Rx         0301  8  07 00 01 8F 00 BE 2D E3 
  1502)    475543.2  Rx         0247  8  40 08 CA 32 2D 2B 29 05 
  1503)    475764.5  Rx         0301  8  07 00 01 91 00 BE 2D E4 
  1504)    476412.1  Rx         0069  8  16 25 24 23 D7 00 00 AA 
  1505)    476544.0  Rx         0247  8  40 08 CA 32 2D 2B 29 05 
  1506)    476764.5  Rx         0301  8  07 00 01 93 00 BE 2D E3 
  1507)    476878.6  Rx         0033  8  90 00 2F 00 01 86 A0 01 
  1508)    477541.5  Rx         0247  8  40 08 CA 32 2D 2B 29 05 
